date Wed Nov 17 12:08:50 pm 2021
base hex  timestamps absolute
no internal events logged
// version 7.5.0
Begin Triggerblock Wed Nov 17 12:08:50 pm 2021
    0.000000 Start of measurement
    0.000000 1 214721afx Rx d 8 00 00 69 00 00 00 00 02 
    0.001000 1 21470849x Rx d 8 00 00 00 00 fb 00 f3 00 
    0.002000 1 21472149x Rx d 8 00 00 69 00 00 00 00 02 
    0.021000 1 21472049x Rx d 8 00 00 00 00 00 00 00 00 
    0.022000 1 214721c1x Rx d 8 00 00 69 00 00 00 00 02 
    0.031000 1 21472b49x Rx d 8 00 00 03 00 00 07 01 00 
    0.051000 1 21471549x Rx d 8 5a 26 d6 25 71 26 47 00 
    0.061000 1 21471649x Rx d 8 34 00 cf 04 00 00 01 01 
    0.067000 1 214721f7x Rx d 8 00 00 69 00 00 00 00 02 
    0.071000 1 21471749x Rx d 8 00 3f 00 00 01 00 f3 07 
    0.081000 1 21472149x Rx d 8 73 de 01 00 30 a3 00 00 
    0.091000 1 21471949x Rx d 8 52 26 08 00 12 00 01 00 
    0.100000 1 214721afx Rx d 8 00 00 69 00 00 00 00 02 
    0.101000 1 21472149x Rx d 8 00 00 69 00 00 00 00 02 
    0.691000 1 21472249x Rx d 8 00 00 10 27 0c 27 82 00 
    0.121000 1 21472349x Rx d 8 d1 c4 00 00 f8 04 00 00 
    0.122000 1 214721c1x Rx d 8 00 00 69 00 00 00 00 02 
    0.132000 1 21472449x Rx d 8 00 00 02 00 00 00 1f 6f 
    0.142000 1 21472549x Rx d 8 05 03 00 00 00 00 3f 00 
    0.167000 1 214701f7x Rx d 8 00 40 00 00 7d 00 00 00 
    0.167000 1 214703f7x Rx d 8 00 00 21 e3 e0 fc 00 01 
    0.167000 1 214704f7x Rx d 8 33 10 41 10 39 3a 0a 4b 
    0.168000 1 214706f7x Rx d 8 3e 0d 00 08 00 01 69 69 
    0.168000 1 214707f7x Rx d 8 2d 00 00 00 00 00 1f 26 
    0.168000 1 214708f7x Rx d 8 00 00 00 00 fd 00 1c 00 
    0.169000 1 214720f7x Rx d 8 00 00 00 00 00 00 00 00 
    0.169000 1 21472bf7x Rx d 8 00 00 7e 05 00 7d 27 00 
    0.169000 1 214715f7x Rx d 8 8e 26 0e 26 8d 26 47 00 
    0.169000 1 214716f7x Rx d 8 21 00 ad 04 00 00 01 01 
    0.170000 1 214717f7x Rx d 8 00 3f 00 00 00 00 f7 07 
    0.170000 1 214721f7x Rx d 8 e5 ec 2f 00 43 b3 00 00 
    0.170000 1 214719f7x Rx d 8 7d 26 0e 00 10 00 01 00 
    0.171000 1 214721f7x Rx d 8 00 00 69 00 00 00 00 02 
    0.171000 1 214722f7x Rx d 8 20 00 99 26 96 26 00 04 
    0.171000 1 214723f7x Rx d 8 31 c5 00 00 8c 05 00 00 
    0.171000 1 214724f7x Rx d 8 00 00 01 00 00 00 00 e9 
    0.172000 1 214725f7x Rx d 8 05 03 00 00 00 00 3f 00 
    0.200000 1 214721afx Rx d 8 00 00 69 00 00 00 00 02 
    0.202000 1 21472149x Rx d 8 00 00 69 00 00 00 00 02 
    0.222000 1 214721c1x Rx d 8 00 00 69 00 00 00 00 02 
    0.250000 1 214703afx Rx d 8 00 00 72 e3 e0 fc 00 01 
    0.268000 1 214721f7x Rx d 8 00 00 69 00 00 00 00 02 
    0.272000 1 214703c1x Rx d 8 00 00 00 e3 e0 fc 00 01 
    0.281000 1 214706afx Rx d 8 3e 0d 00 08 00 01 69 69 
    0.301000 1 214721afx Rx d 8 00 00 69 00 00 00 00 02 
    0.302000 1 214706c1x Rx d 8 3e 0d 00 08 00 01 69 69 
    0.302000 1 21472149x Rx d 8 00 00 69 00 00 00 00 02 
    0.321000 1 214720afx Rx d 8 00 00 00 00 00 00 00 00 
    0.322000 1 214721c1x Rx d 8 00 00 69 00 00 00 00 02 
    0.343000 1 214720c1x Rx d 8 00 00 00 00 00 00 00 00 
    0.368000 1 214721f7x Rx d 8 00 00 69 00 00 00 00 02 
    0.401000 1 214721afx Rx d 8 00 00 69 00 00 00 00 02 
    0.402000 1 21472149x Rx d 8 00 00 69 00 00 00 00 02 
    0.423000 1 214721c1x Rx d 8 00 00 69 00 00 00 00 02 
    0.452000 1 21470349x Rx d 8 00 00 04 e3 e0 fc 00 01 
    0.468000 1 214721f7x Rx d 8 00 00 69 00 00 00 00 02 
    0.482000 1 21470649x Rx d 8 3e 0e 00 08 00 01 69 69 
    0.501000 1 214721afx Rx d 8 00 00 69 00 00 00 00 02 
    0.503000 1 21472149x Rx d 8 00 00 69 00 00 00 00 02 
    0.523000 1 214721c1x Rx d 8 00 00 69 00 00 00 00 02 
    0.523000 1 21472049x Rx d 8 00 00 00 00 00 00 00 00 
    0.568000 1 214721f7x Rx d 8 00 00 69 00 00 00 00 02 
    0.601000 1 214721afx Rx d 8 00 00 69 00 00 00 00 02 
    0.603000 1 21472149x Rx d 8 00 00 69 00 00 00 00 02 
    0.624000 1 214721c1x Rx d 8 00 00 69 00 00 00 00 02 
    0.668000 1 214703f7x Rx d 8 00 00 1e e3 e0 fc 00 01 
    0.668000 1 214706f7x Rx d 8 3e 0d 00 08 00 01 69 69 
    0.668000 1 214720f7x Rx d 8 00 00 00 00 00 00 00 00 
    0.669000 1 214721f7x Rx d 8 00 00 69 00 00 00 00 02 
    0.701000 1 214721afx Rx d 8 00 00 69 00 00 00 00 02 
    0.704000 1 21472149x Rx d 8 00 00 69 00 00 00 00 02 
    0.725000 1 214721c1x Rx d 8 00 00 69 00 00 00 00 02 
    0.731000 1 214701afx Rx d 8 00 40 00 00 6b 00 00 00 
    0.751000 1 214703afx Rx d 8 00 00 74 e3 e0 fc 00 01 
    0.756000 1 214701c1x Rx d 8 00 40 00 00 66 00 00 00 
    0.762000 1 214704afx Rx d 8 3d 10 45 10 39 3a 0a 28 
    0.769000 1 214721f7x Rx d 8 00 00 69 00 00 00 00 02 
    0.777000 1 214703c1x Rx d 8 00 00 0a e3 e0 fc 00 01 
    0.783000 1 214706afx Rx d 8 3e 0d 00 08 00 01 69 69 
    0.787000 1 214704c1x Rx d 8 33 10 3d 10 39 39 0a 68 
    0.793000 1 214707afx Rx d 8 3a 00 00 00 00 00 e1 26 
    0.803000 1 214708afx Rx d 8 00 00 00 00 f4 00 37 01 
    0.803000 1 214721afx Rx d 8 00 00 69 00 00 00 00 02 
    0.804000 1 21472149x Rx d 8 00 00 69 00 00 00 00 02 
    0.807000 1 214706c1x Rx d 8 3e 0d 00 08 00 01 69 69 
    0.821000 1 214707c1x Rx d 8 22 00 00 00 00 00 80 26 
    0.823000 1 214720afx Rx d 8 00 00 00 00 00 00 00 00 
    0.828000 1 214708c1x Rx d 8 00 00 00 00 fb 00 14 00 
    0.828000 1 214721c1x Rx d 8 00 00 69 00 00 00 00 02 
    0.833000 1 21472bafx Rx d 8 00 00 0e 00 00 4c 01 00 
    0.850000 1 214720c1x Rx d 8 00 00 00 00 00 00 00 00 
    0.853000 1 214715afx Rx d 8 77 26 46 26 7b 26 47 00 
    0.860000 1 21472bc1x Rx d 8 00 00 2d 00 00 de 13 00 
    0.863000 1 214716afx Rx d 8 3c 00 b7 04 00 00 01 01 
    0.869000 1 214721f7x Rx d 8 00 00 69 00 00 00 00 02 
    0.873000 1 214717afx Rx d 8 00 3f 00 00 00 00 f5 07 
    0.881000 1 214715c1x Rx d 8 71 26 d6 25 6e 26 47 00 
    0.883000 1 214721afx Rx d 8 fb 73 10 00 9e e8 00 00 
    0.891000 1 214716c1x Rx d 8 4f 00 b9 04 00 00 01 01 
    0.893000 1 214719afx Rx d 8 6b 26 08 00 12 00 01 00 
    0.901000 1 214717c1x Rx d 8 00 3f 00 00 00 00 f7 07 
    0.903000 1 214721afx Rx d 8 00 00 69 00 00 00 00 02 
    0.904000 1 21472149x Rx d 8 00 00 69 00 00 00 00 02 
    0.912000 1 214721c1x Rx d 8 60 f6 34 00 cc 89 00 00 
    0.913000 1 214722afx Rx d 8 16 00 0a 27 e7 26 02 00 
    0.922000 1 214719c1x Rx d 8 66 26 0c 00 02 00 01 00 
    0.923000 1 214723afx Rx d 8 70 c1 00 00 8c 05 00 00 
    0.932000 1 214721c1x Rx d 8 00 00 69 00 00 00 00 02 
    0.933000 1 214724afx Rx d 8 00 00 02 00 00 00 00 8b 
    0.935000 1 21470149x Rx d 8 00 40 00 00 52 00 00 00 
    0.943000 1 214722c1x Rx d 8 15 00 06 27 8a 26 82 00 
    0.943000 1 214725afx Rx d 8 05 03 00 00 00 00 3f 00 
    0.953000 1 214723c1x Rx d 8 4c c6 00 00 8c 05 00 00 
    0.955000 1 21470349x Rx d 8 00 00 06 e3 e0 fc 00 01 
    0.963000 1 214724c1x Rx d 8 00 00 02 00 00 00 00 eb 
    0.966000 1 21470449x Rx d 8 35 10 3d 10 38 39 0a 21 
    0.969000 1 214721f7x Rx d 8 00 00 69 00 00 00 00 02 
    0.973000 1 214725c1x Rx d 8 05 03 00 00 00 00 3f 00 
End TriggerBlock
