date Wed Nov 17 12:08:50 pm 2021
base hex  timestamps absolute
no internal events logged
// version 7.5.0
Begin Triggerblock Wed Nov 17 12:08:50 pm 2021
    0.000000 Start of measurement
    0.000000 1 214721afx Rx d 8 00 00 69 00 00 00 00 02 
    0.001000 1 21470849x Rx d 8 00 00 00 00 fb 00 f3 00 
    0.002000 1 21472149x Rx d 8 00 00 69 00 00 00 00 02 
    0.021000 1 21472049x Rx d 8 00 00 00 00 00 00 00 00 
    0.022000 1 214721c1x Rx d 8 00 00 69 00 00 00 00 02 
    0.031000 1 21472b49x Rx d 8 00 00 03 00 00 07 01 00 
    0.051000 1 21471549x Rx d 8 5a 26 d6 25 71 26 47 00 
    0.061000 1 21471649x Rx d 8 34 00 cf 04 00 00 01 01 
    0.067000 1 214721f7x Rx d 8 00 00 69 00 00 00 00 02 
    0.071000 1 21471749x Rx d 8 00 3f 00 00 01 00 f3 07 
    0.081000 1 21472149x Rx d 8 73 de 01 00 30 a3 00 00 
    0.091000 1 21471949x Rx d 8 52 26 08 00 12 00 01 00 
    0.100000 1 214721afx Rx d 8 00 00 69 00 00 00 00 02 
    0.101000 1 21472149x Rx d 8 00 00 69 00 00 00 00 02 
    0.691000 1 21472249x Rx d 8 00 00 10 27 0c 27 82 00 
    0.121000 1 21472349x Rx d 8 d1 c4 00 00 f8 04 00 00 
    0.122000 1 214721c1x Rx d 8 00 00 69 00 00 00 00 02 
    0.132000 1 21472449x Rx d 8 00 00 02 00 00 00 1f 6f 
    0.142000 1 21472549x Rx d 8 05 03 00 00 00 00 3f 00 
    0.167000 1 214701f7x Rx d 8 00 40 00 00 7d 00 00 00 
    0.167000 1 214703f7x Rx d 8 00 00 21 e3 e0 fc 00 01 
    0.167000 1 214704f7x Rx d 8 33 10 41 10 39 3a 0a 4b 
    0.168000 1 214706f7x Rx d 8 3e 0d 00 08 00 01 69 69 
    0.168000 1 214707f7x Rx d 8 2d 00 00 00 00 00 1f 26 
    0.168000 1 214708f7x Rx d 8 00 00 00 00 fd 00 1c 00 
    0.169000 1 214720f7x Rx d 8 00 00 00 00 00 00 00 00 
    0.169000 1 21472bf7x Rx d 8 00 00 7e 05 00 7d 27 00 
    0.169000 1 214715f7x Rx d 8 8e 26 0e 26 8d 26 47 00 
    0.169000 1 214716f7x Rx d 8 21 00 ad 04 00 00 01 01 
    0.170000 1 214717f7x Rx d 8 00 3f 00 00 00 00 f7 07 
    0.170000 1 214721f7x Rx d 8 e5 ec 2f 00 43 b3 00 00 
    0.170000 1 214719f7x Rx d 8 7d 26 0e 00 10 00 01 00 
    0.171000 1 214721f7x Rx d 8 00 00 69 00 00 00 00 02 
    0.171000 1 214722f7x Rx d 8 20 00 99 26 96 26 00 04 
    0.171000 1 214723f7x Rx d 8 31 c5 00 00 8c 05 00 00 
    0.171000 1 214724f7x Rx d 8 00 00 01 00 00 00 00 e9 
    0.172000 1 214725f7x Rx d 8 05 03 00 00 00 00 3f 00 
    0.200000 1 214721afx Rx d 8 00 00 69 00 00 00 00 02 
    0.202000 1 21472149x Rx d 8 00 00 69 00 00 00 00 02 
    0.222000 1 214721c1x Rx d 8 00 00 69 00 00 00 00 02 
    0.250000 1 214703afx Rx d 8 00 00 72 e3 e0 fc 00 01 
    0.268000 1 214721f7x Rx d 8 00 00 69 00 00 00 00 02 
    0.272000 1 214703c1x Rx d 8 00 00 00 e3 e0 fc 00 01 
    0.281000 1 214706afx Rx d 8 3e 0d 00 08 00 01 69 69 
    0.301000 1 214721afx Rx d 8 00 00 69 00 00 00 00 02 
    0.302000 1 214706c1x Rx d 8 3e 0d 00 08 00 01 69 69 
    0.302000 1 21472149x Rx d 8 00 00 69 00 00 00 00 02 
    0.321000 1 214720afx Rx d 8 00 00 00 00 00 00 00 00 
    0.322000 1 214721c1x Rx d 8 00 00 69 00 00 00 00 02 
    0.343000 1 214720c1x Rx d 8 00 00 00 00 00 00 00 00 
    0.368000 1 214721f7x Rx d 8 00 00 69 00 00 00 00 02 
    0.401000 1 214721afx Rx d 8 00 00 69 00 00 00 00 02 
    0.402000 1 21472149x Rx d 8 00 00 69 00 00 00 00 02 
    0.423000 1 214721c1x Rx d 8 00 00 69 00 00 00 00 02 
    0.452000 1 21470349x Rx d 8 00 00 04 e3 e0 fc 00 01 
    0.468000 1 214721f7x Rx d 8 00 00 69 00 00 00 00 02 
    0.482000 1 21470649x Rx d 8 3e 0e 00 08 00 01 69 69 
    0.501000 1 214721afx Rx d 8 00 00 69 00 00 00 00 02 
    0.503000 1 21472149x Rx d 8 00 00 69 00 00 00 00 02 
    0.523000 1 214721c1x Rx d 8 00 00 69 00 00 00 00 02 
    0.523000 1 21472049x Rx d 8 00 00 00 00 00 00 00 00 
    0.568000 1 214721f7x Rx d 8 00 00 69 00 00 00 00 02 
    0.601000 1 214721afx Rx d 8 00 00 69 00 00 00 00 02 
    0.603000 1 21472149x Rx d 8 00 00 69 00 00 00 00 02 
    0.624000 1 214721c1x Rx d 8 00 00 69 00 00 00 00 02 
    0.668000 1 214703f7x Rx d 8 00 00 1e e3 e0 fc 00 01 
    0.668000 1 214706f7x Rx d 8 3e 0d 00 08 00 01 69 69 
    0.668000 1 214720f7x Rx d 8 00 00 00 00 00 00 00 00 
    0.669000 1 214721f7x Rx d 8 00 00 69 00 00 00 00 02 
    0.701000 1 214721afx Rx d 8 00 00 69 00 00 00 00 02 
    0.704000 1 21472149x Rx d 8 00 00 69 00 00 00 00 02 
    0.725000 1 214721c1x Rx d 8 00 00 69 00 00 00 00 02 
    0.731000 1 214701afx Rx d 8 00 40 00 00 6b 00 00 00 
    0.751000 1 214703afx Rx d 8 00 00 74 e3 e0 fc 00 01 
    0.756000 1 214701c1x Rx d 8 00 40 00 00 66 00 00 00 
    0.762000 1 214704afx Rx d 8 3d 10 45 10 39 3a 0a 28 
    0.769000 1 214721f7x Rx d 8 00 00 69 00 00 00 00 02 
    0.777000 1 214703c1x Rx d 8 00 00 0a e3 e0 fc 00 01 
    0.783000 1 214706afx Rx d 8 3e 0d 00 08 00 01 69 69 
    0.787000 1 214704c1x Rx d 8 33 10 3d 10 39 39 0a 68 
    0.793000 1 214707afx Rx d 8 3a 00 00 00 00 00 e1 26 
    0.803000 1 214708afx Rx d 8 00 00 00 00 f4 00 37 01 
    0.803000 1 214721afx Rx d 8 00 00 69 00 00 00 00 02 
    0.804000 1 21472149x Rx d 8 00 00 69 00 00 00 00 02 
    0.807000 1 214706c1x Rx d 8 3e 0d 00 08 00 01 69 69 
    0.821000 1 214707c1x Rx d 8 22 00 00 00 00 00 80 26 
    0.823000 1 214720afx Rx d 8 00 00 00 00 00 00 00 00 
    0.828000 1 214708c1x Rx d 8 00 00 00 00 fb 00 14 00 
    0.828000 1 214721c1x Rx d 8 00 00 69 00 00 00 00 02 
    0.833000 1 21472bafx Rx d 8 00 00 0e 00 00 4c 01 00 
    0.850000 1 214720c1x Rx d 8 00 00 00 00 00 00 00 00 
    0.853000 1 214715afx Rx d 8 77 26 46 26 7b 26 47 00 
    0.860000 1 21472bc1x Rx d 8 00 00 2d 00 00 de 13 00 
    0.863000 1 214716afx Rx d 8 3c 00 b7 04 00 00 01 01 
    0.869000 1 214721f7x Rx d 8 00 00 69 00 00 00 00 02 
    0.873000 1 214717afx Rx d 8 00 3f 00 00 00 00 f5 07 
    0.881000 1 214715c1x Rx d 8 71 26 d6 25 6e 26 47 00 
    0.883000 1 214721afx Rx d 8 fb 73 10 00 9e e8 00 00 
    0.891000 1 214716c1x Rx d 8 4f 00 b9 04 00 00 01 01 
    0.893000 1 214719afx Rx d 8 6b 26 08 00 12 00 01 00 
    0.901000 1 214717c1x Rx d 8 00 3f 00 00 00 00 f7 07 
    0.903000 1 214721afx Rx d 8 00 00 69 00 00 00 00 02 
    0.904000 1 21472149x Rx d 8 00 00 69 00 00 00 00 02 
    0.912000 1 214721c1x Rx d 8 60 f6 34 00 cc 89 00 00 
    0.913000 1 214722afx Rx d 8 16 00 0a 27 e7 26 02 00 
    0.922000 1 214719c1x Rx d 8 66 26 0c 00 02 00 01 00 
    0.923000 1 214723afx Rx d 8 70 c1 00 00 8c 05 00 00 
    0.932000 1 214721c1x Rx d 8 00 00 69 00 00 00 00 02 
    0.933000 1 214724afx Rx d 8 00 00 02 00 00 00 00 8b 
    0.935000 1 21470149x Rx d 8 00 40 00 00 52 00 00 00 
    0.943000 1 214722c1x Rx d 8 15 00 06 27 8a 26 82 00 
    0.943000 1 214725afx Rx d 8 05 03 00 00 00 00 3f 00 
    0.953000 1 214723c1x Rx d 8 4c c6 00 00 8c 05 00 00 
    0.955000 1 21470349x Rx d 8 00 00 06 e3 e0 fc 00 01 
    0.963000 1 214724c1x Rx d 8 00 00 02 00 00 00 00 eb 
    0.966000 1 21470449x Rx d 8 35 10 3d 10 38 39 0a 21 
    0.969000 1 214721f7x Rx d 8 00 00 69 00 00 00 00 02 
    0.973000 1 214725c1x Rx d 8 05 03 00 00 00 00 3f 00 
    11.000000 1 22332449x Rx d 8 00 00 02 00 00 00 1f ef 
    11.010000 1 22332549x Rx d 8 05 03 00 00 00 00 3f 00 
    11.017000 1 223321afx Rx d 8 00 00 42 00 00 00 00 02 
    11.067000 1 223303afx Rx d 8 00 00 70 e3 e0 fc 00 01 
    11.071000 1 22332149x Rx d 8 00 00 42 00 00 00 00 02 
    11.084000 1 223321f7x Rx d 8 00 00 42 00 00 00 00 02 
    11.095000 1 223321c1x Rx d 8 00 00 42 00 00 00 00 02 
    11.097000 1 223306afx Rx d 8 3e 0d 00 08 00 01 69 69 
    11.427000 1 223321afx Rx d 8 00 00 42 00 00 00 00 02 
    11.137000 1 223320afx Rx d 8 00 00 00 00 00 00 00 00 
    11.145000 1 223303c1x Rx d 8 00 00 08 e3 e0 fc 00 01 
    11.171000 1 22332149x Rx d 8 00 00 42 00 00 00 00 02 
    11.176000 1 223306c1x Rx d 8 3e 0d 00 08 00 01 69 69 
    11.224000 1 223321f7x Rx d 8 00 00 42 00 00 00 00 02 
    11.197000 1 223321c1x Rx d 8 00 00 42 00 00 00 00 02 
    11.217000 1 223321afx Rx d 8 00 00 42 00 00 00 00 02 
    11.217000 1 223320c1x Rx d 8 00 00 00 00 00 00 00 00 
    11.271000 1 22332149x Rx d 8 00 00 42 00 00 00 00 02 
    11.284000 1 223321f7x Rx d 8 00 00 42 00 00 00 00 02 
    11.298000 1 223321c1x Rx d 8 00 00 42 00 00 00 00 02 
    11.317000 1 223321afx Rx d 8 00 00 42 00 00 00 00 02 
    11.321000 1 22330349x Rx d 8 00 00 f9 e2 e0 fc 00 01 
    11.351000 1 22330649x Rx d 8 3e 0e 00 08 00 01 69 69 
    11.371000 1 22332149x Rx d 8 00 00 42 00 00 00 00 02 
    11.384000 1 223321f7x Rx d 8 00 00 42 00 00 00 00 02 
    11.391000 1 22332049x Rx d 8 00 00 00 00 00 00 00 00 
    11.400000 1 223321c1x Rx d 8 00 00 42 00 00 00 00 02 
    11.417000 1 223321afx Rx d 8 00 00 42 00 00 00 00 02 
    11.471000 1 22332149x Rx d 8 00 00 42 00 00 00 00 02 
    11.484000 1 223303f7x Rx d 8 00 00 1e e3 e0 fc 00 01 
    11.485000 1 223306f7x Rx d 8 3e 0d 00 08 00 01 69 69 
    11.485000 1 223320f7x Rx d 8 00 00 00 00 00 00 00 00 
    11.485000 1 223321f7x Rx d 8 00 00 42 00 00 00 00 02 
    11.500000 1 223321c1x Rx d 8 00 00 42 00 00 00 00 02 
    11.517000 1 223321afx Rx d 8 00 00 42 00 00 00 00 02 
    11.547000 1 223301afx Rx d 8 00 40 00 00 6b 00 00 00 
    11.567000 1 223303afx Rx d 8 00 00 72 e3 e0 fc 00 01 
    11.572000 1 22332149x Rx d 8 00 00 42 00 00 00 00 02 
    11.577000 1 223304afx Rx d 8 3b 10 45 10 39 39 0a 3b 
    11.585000 1 223321f7x Rx d 8 00 00 42 00 00 00 00 02 
    11.597000 1 223306afx Rx d 8 3e 0d 00 08 00 01 69 69 
    11.600000 1 223321c1x Rx d 8 00 00 42 00 00 00 00 02 
    11.607000 1 223307afx Rx d 8 44 00 00 00 00 00 e1 26 
    11.617000 1 223308afx Rx d 8 00 00 00 00 f4 00 37 01 
    11.617000 1 223321afx Rx d 8 00 00 42 00 00 00 00 02 
    11.630000 1 223301c1x Rx d 8 00 40 00 00 66 00 00 00 
    11.638000 1 223320afx Rx d 8 00 00 00 00 00 00 00 00 
    11.648000 1 22332bafx Rx d 8 00 00 0e 00 00 4c 01 00 
    11.651000 1 223303c1x Rx d 8 00 00 04 e3 e0 fc 00 01 
    11.660000 1 22013350x Rx d 8 00 00 90 31 86 03 00 00 
    11.661000 1 223304c1x Rx d 8 33 10 3d 10 39 39 09 70 
    11.668000 1 223315afx Rx d 8 77 26 46 26 7b 26 33 00 
    11.670000 1 22013350x Rx d 8 00 00 90 31 86 03 00 01 
    11.672000 1 22332149x Rx d 8 00 00 42 00 00 00 00 02 
    11.678000 1 223316afx Rx d 8 3c 00 b8 04 00 00 02 01 
    11.680000 1 22013350x Rx d 8 00 00 90 31 86 03 00 02 
    11.681000 1 223306c1x Rx d 8 3e 0d 00 08 00 01 69 69 
    11.682000 1 220a50c1x Rx d 8 32 30 36 30 30 32 32 33 
    11.683000 1 220a5049x Rx d 8 35 32 32 31 30 30 35 30 
    11.685000 1 223321f7x Rx d 8 00 00 42 00 00 00 00 02 
    11.686000 1 220a50f7x Rx d 8 30 34 31 30 32 31 30 32 
    11.688000 1 223317afx Rx d 8 00 3f 00 00 00 00 f5 07 
    11.689000 1 220a50afx Rx d 8 32 30 36 30 30 30 35 53 
    11.690000 1 22013350x Rx d 8 00 00 90 31 86 03 00 03 
    11.691000 1 220ac150x Rx d 8 00 32 30 36 30 30 32 32 
    11.691000 1 220a4950x Rx d 8 01 35 32 32 31 30 30 35 
    11.691000 1 22330700x Rx d 8 00 00 00 00 00 00 80 26 
    11.692000 1 220af750x Rx d 8 02 30 34 31 30 32 31 30 
    11.692000 1 220aaf50x Rx d 8 03 32 30 36 30 30 30 35 
    11.692000 1 220f5000x Rx d 8 d8 00 19 00 00 00 02 02 
    11.693000 1 220f5001x Rx d 8 d8 00 19 00 00 00 02 02 
    11.696000 1 220f5002x Rx d 8 d8 00 19 00 00 00 02 02 
    11.698000 1 22332203x Rx d 8 05 74 10 00 db 0f 01 00 
    11.699000 1 220f5003x Rx d 8 d8 00 19 00 00 00 02 02 
    11.702000 1 22330800x Rx d 8 00 00 00 00 fb 00 14 00 
    11.702000 1 22332100x Rx d 8 00 00 42 00 00 00 00 02 
    11.708000 1 22331903x Rx d 8 6b 26 06 00 12 00 01 00 
    11.742000 1 22013350x Rx d 8 00 00 90 32 86 03 00 04 
    11.742000 1 22013350x Rx d 8 0f 00 10 33 86 33 00 05 
    11.722000 1 22332103x Rx d 8 00 00 42 00 00 00 00 02 
    11.722000 1 22332000x Rx d 8 00 00 00 00 00 00 00 00 
    11.728000 1 22332203x Rx d 8 16 00 0a 27 e7 26 02 00 
    11.732000 1 22332b00x Rx d 8 00 00 2d 00 00 de 13 00 
    11.752000 1 22332303x Rx d 8 7a c1 00 00 8c 05 00 00 
    11.752000 1 22331500x Rx d 8 71 26 d6 25 6e 26 33 00 
    11.762000 1 22331600x Rx d 8 50 00 ba 04 00 00 02 01 
    11.762000 1 22332403x Rx d 8 00 00 02 00 00 00 00 65 
    11.772000 1 22331700x Rx d 8 00 3f 00 00 00 00 f7 07 
    11.773000 1 22332101x Rx d 8 00 00 42 01 23 00 01 02 
    11.773000 1 22332503x Rx d 8 02 03 00 00 00 00 1f 02 
    11.782000 1 22332200x Rx d 8 6a f6 34 00 40 b1 00 00 
    11.792000 1 22331900x Rx d 8 66 26 0c 00 02 00 01 00 
    11.793000 1 22015000x Rx d 8 00 00 02 e3 10 08 00 02 
    11.799000 1 22332102x Rx d 8 00 00 42 01 5e 00 01 02 
    11.802000 1 22332100x Rx d 8 00 00 42 01 7e 00 01 02 
    11.803000 1 22015001x Rx d 8 00 00 fb e2 10 08 00 02 
    11.810000 1 22015002x Rx d 8 00 00 22 e3 10 08 00 02 
    11.812000 1 22332200x Rx d 8 15 00 06 27 8a 26 82 00 
    11.813000 1 22330101x Rx d 8 00 44 00 00 52 00 00 00 
    11.814000 1 22015003x Rx d 8 00 00 81 e3 10 08 00 02 
    11.820000 1 22013350x Rx d 8 0f 00 10 33 87 33 00 06 
    11.822000 1 22332300x Rx d 8 56 c6 00 00 8c 05 00 00 
    11.832000 1 22332400x Rx d 8 00 00 02 00 00 00 00 c1 
    11.833000 1 22332103x Rx d 8 00 00 42 01 eb 00 01 02 
    11.834000 1 22330301x Rx d 8 00 00 fd e2 e0 fc 00 02 
    11.842000 1 22332500x Rx d 8 02 03 00 00 00 00 1f 02 
    11.844000 1 22330401x Rx d 8 33 10 3d 10 38 39 0a 48 
    11.864000 1 22330601x Rx d 8 3e 0e 00 08 00 01 69 69 
    11.874000 1 22330701x Rx d 8 00 00 00 00 00 00 0c 27 
    11.884000 1 22330801x Rx d 8 00 00 00 00 fb 00 f3 00 
    11.884000 1 22332101x Rx d 8 00 00 42 01 91 00 01 02 
    11.893000 1 22015000x Rx d 8 00 00 fb e2 10 08 00 12 
    11.899000 1 22332102x Rx d 8 00 00 42 01 8e 00 01 02 
    11.902000 1 22332100x Rx d 8 00 00 42 01 c9 00 01 02 
    11.904000 1 22332001x Rx d 8 00 00 00 00 00 00 00 00 
    11.905000 1 22015001x Rx d 8 00 00 f7 e2 10 08 00 12 
    11.910000 1 22015002x Rx d 8 00 00 24 e3 10 08 00 12 
    11.914000 1 22015003x Rx d 8 00 00 7c e3 10 08 00 12 
    11.915000 1 22332b01x Rx d 8 00 00 03 00 00 07 01 00 
    11.932000 1 22013350x Rx d 8 0f 00 10 33 87 33 00 07 
    11.933000 1 22332103x Rx d 8 00 00 42 01 67 01 01 02 
    11.935000 1 22331501x Rx d 8 5b 26 ba 25 71 26 33 00 
    11.945000 1 22331601x Rx d 8 3f 00 d0 04 00 00 02 01 
    11.955000 1 22331701x Rx d 8 00 3f 00 00 01 00 f3 07 
    11.965000 1 22332201x Rx d 8 7e de 01 00 99 ce 00 00 
    11.975000 1 22331901x Rx d 8 52 26 06 00 12 00 01 00 
    11.985000 1 22332101x Rx d 8 00 00 42 01 cb 00 01 02 
    11.995000 1 22332201x Rx d 8 00 00 10 27 0c 27 82 00 
    11.999000 1 22330102x Rx d 8 00 44 00 00 7d 00 00 00 
    12.000000 1 22330302x Rx d 8 00 00 16 e3 e0 fc 00 02 
    12.000000 1 22330402x Rx d 8 35 10 41 10 39 3a 0a 40 
    12.000000 1 22330502x Rx d 8 30 34 31 30 32 31 30 32 
    12.001000 1 22330602x Rx d 8 3e 0d 00 08 00 01 69 69 
    12.001000 1 22330702x Rx d 8 00 00 00 00 00 00 1f 26 
    12.001000 1 22330802x Rx d 8 00 00 00 00 fd 00 1c 00 
    12.001000 1 22330902x Rx d 8 40 01 7e 01 00 6c 01 00 
    12.002000 1 22332002x Rx d 8 00 00 00 00 00 00 00 00 
    12.002000 1 22332b02x Rx d 8 00 00 7e 05 00 7d 27 00 
    12.002000 1 22331502x Rx d 8 8e 26 2a 26 8d 26 33 00 
    12.003000 1 22331602x Rx d 8 22 00 ad 04 00 00 02 01 
    12.003000 1 22331702x Rx d 8 00 3f 00 00 00 00 f7 07 
    12.003000 1 22332202x Rx d 8 f0 ec 2f 00 79 de 00 00 
    12.003000 1 22331902x Rx d 8 7d 26 0c 00 10 00 01 00 
    12.004000 1 22332102x Rx d 8 00 00 42 01 b2 00 01 02 
    12.004000 1 22332202x Rx d 8 20 00 99 26 96 26 00 04 
    12.004000 1 22332302x Rx d 8 3c c5 00 00 8c 05 00 00 
    12.005000 1 22332402x Rx d 8 00 00 01 00 00 00 00 5f 
    12.005000 1 22332502x Rx d 8 02 03 00 00 00 00 1f 02 
    12.005000 1 22332301x Rx d 8 dc c4 00 00 f8 04 00 00 
    12.006000 1 22015001x Rx d 8 00 00 f5 e2 10 08 00 22 
    12.008000 1 22015000x Rx d 8 00 00 fd e2 10 08 00 22 
    12.042000 1 22015002x Rx d 8 00 00 16 e3 10 08 00 22 
    12.014000 1 22015003x Rx d 8 00 00 74 e3 10 08 00 22 
    12.015000 1 22332401x Rx d 8 00 00 02 00 00 00 1f fa 
    12.017000 1 22332100x Rx d 8 00 00 42 01 9e 01 01 02 
    12.025000 1 22332501x Rx d 8 02 03 00 00 00 00 1f 02 
    12.033000 1 22332103x Rx d 8 00 00 42 01 fc 01 01 02 
    12.040000 1 22013350x Rx d 8 0f 00 10 33 87 33 00 08 
    12.083000 1 22330303x Rx d 8 00 00 72 e3 e0 fc 00 02 
    12.085000 1 22332101x Rx d 8 00 00 42 00 ee 00 04 02 
    12.100000 1 22332102x Rx d 8 00 00 42 00 ca 00 04 02 
    12.106000 1 22015001x Rx d 8 00 00 00 e3 1c 08 00 32 
    12.108000 1 22015000x Rx d 8 00 00 fb e2 1c 08 00 32 
    12.421000 1 22015002x Rx d 8 00 00 16 e3 1c 08 00 32 
    12.423000 1 22330603x Rx d 8 3e 0d 00 08 00 01 69 69 
    12.424000 1 22015003x Rx d 8 00 00 72 e3 1c 08 00 32 
    12.427000 1 22332100x Rx d 8 00 00 42 00 b4 01 04 02 
    12.133000 1 22332103x Rx d 8 00 00 42 00 20 02 04 02 
    12.150000 1 22013350x Rx d 8 0f 00 14 33 87 33 00 09 
    12.153000 1 22332003x Rx d 8 00 00 00 00 00 00 00 00 
    12.167000 1 22330300x Rx d 8 00 00 00 e3 e0 fc 00 02 
    12.225000 1 22332101x Rx d 8 00 00 42 00 ee 00 04 02 
    12.197000 1 22330600x Rx d 8 3e 0d 00 08 00 01 69 69 
    12.200000 1 22332102x Rx d 8 00 00 42 00 ca 00 04 02 
    12.206000 1 22015001x Rx d 8 00 00 08 e3 1c 08 00 42 
    12.208000 1 22015000x Rx d 8 00 00 04 e3 1c 08 00 42 
    12.242000 1 22015002x Rx d 8 00 00 1c e3 1c 08 00 42 
    12.214000 1 22015003x Rx d 8 ef 33 51 e3 1c 08 00 42 
    12.217000 1 22332100x Rx d 8 00 00 42 00 b4 01 04 02 
    12.233000 1 22332103x Rx d 8 00 00 42 00 20 02 04 02 
    12.237000 1 22332000x Rx d 8 00 00 00 00 00 00 00 00 
    12.260000 1 22013350x Rx d 8 0f 00 14 33 87 33 00 0a 
    12.285000 1 22332101x Rx d 8 00 00 42 00 ee 00 04 02 
    12.300000 1 22332102x Rx d 8 00 00 42 00 ca 00 04 02 
    12.306000 1 22015001x Rx d 8 00 00 10 e3 1c 08 00 52 
    12.308000 1 22015000x Rx d 8 00 00 0a e3 1c 08 00 52 
    12.342000 1 22015002x Rx d 8 00 00 24 e3 1c 08 00 52 
    12.314000 1 22015003x Rx d 8 ef 33 43 e3 1c 08 00 52 
    12.317000 1 22332100x Rx d 8 00 00 42 00 b4 01 04 02 
    12.333000 1 22332103x Rx d 8 00 00 42 00 20 02 04 02 
    12.335000 1 22330301x Rx d 8 00 00 10 e3 e0 fc 00 02 
    12.365000 1 22330601x Rx d 8 3e 0e 00 08 00 01 69 69 
    12.370000 1 22013350x Rx d 8 0f 00 14 33 87 33 00 0b 
    12.385000 1 22332101x Rx d 8 00 00 42 00 ee 00 04 02 
    12.400000 1 22332102x Rx d 8 00 00 42 00 ca 00 04 02 
    12.405000 1 22332001x Rx d 8 00 00 00 00 00 00 00 00 
    12.406000 1 22015001x Rx d 8 00 00 14 e3 1c 08 00 62 
    12.408000 1 22015000x Rx d 8 00 00 08 e3 1c 08 00 62 
    12.442000 1 22015002x Rx d 8 00 00 22 e3 1c 08 00 62 
    12.414000 1 22015003x Rx d 8 f1 33 43 e3 1c 08 00 62 
    12.417000 1 22332100x Rx d 8 00 00 42 00 b4 01 04 02 
    12.433000 1 22332103x Rx d 8 00 00 42 00 20 02 04 02 
    12.480000 1 22013350x Rx d 8 0f 00 14 33 87 33 00 0c 
    12.486000 1 22332101x Rx d 8 00 00 42 00 ee 00 04 02 
    12.500000 1 22330302x Rx d 8 00 00 26 e3 e0 fc 00 02 
    12.501000 1 22330602x Rx d 8 3e 0d 00 08 00 01 69 69 
    12.501000 1 22332002x Rx d 8 00 00 00 00 00 00 00 00 
    12.501000 1 22332102x Rx d 8 00 00 42 00 ca 00 04 02 
    12.507000 1 22015001x Rx d 8 00 00 14 e3 1c 08 00 72 
    12.508000 1 22015000x Rx d 8 00 00 0e e3 1c 08 00 72 
    12.542000 1 22015002x Rx d 8 00 00 26 e3 1c 08 00 72 
    12.514000 1 22015003x Rx d 8 f1 33 43 e3 1c 08 00 72 
    12.517000 1 22332100x Rx d 8 00 00 42 00 b4 01 04 02 
    12.533000 1 22332103x Rx d 8 00 00 42 00 20 02 04 02 
    12.563000 1 22330103x Rx d 8 00 74 00 00 6b 03 00 00 
    12.584000 1 22330303x Rx d 8 f3 33 41 e3 e0 fc 00 02 
    12.586000 1 22332101x Rx d 8 00 00 42 00 ee 00 04 02 
    12.590000 1 22013350x Rx d 8 0f 00 14 33 87 33 00 0d 
    12.594000 1 22330403x Rx d 8 39 10 43 10 39 39 0a 38 
    12.600000 1 22332102x Rx d 8 00 00 42 00 ca 00 04 02 
    12.607000 1 22015001x Rx d 8 00 00 0e e3 1c 08 00 82 
    12.608000 1 22015000x Rx d 8 00 00 0e e3 1c 08 00 82 
    12.642000 1 22015002x Rx d 8 00 00 24 e3 1c 08 00 82 
    12.614000 1 22330603x Rx d 8 3e 0d 00 08 00 01 69 69 
    12.615000 1 22015003x Rx d 8 f3 33 41 e3 1c 08 00 82 
    12.617000 1 22332100x Rx d 8 00 00 42 00 b4 01 04 02 
    12.624000 1 22330703x Rx d 8 00 00 00 00 00 00 e1 26 
    12.634000 1 22330803x Rx d 8 00 00 00 00 f4 00 37 01 
    12.634000 1 22332103x Rx d 8 00 00 42 00 20 02 04 02 
    12.647000 1 22330100x Rx d 8 00 74 00 00 66 03 00 00 
    12.654000 1 22332003x Rx d 8 00 00 00 00 00 00 00 00 
    12.664000 1 22332b03x Rx d 8 00 00 0e 00 00 4c 01 00 
    12.668000 1 22330300x Rx d 8 00 00 0c e3 e0 fc 00 02 
    12.678000 1 22330400x Rx d 8 33 10 41 10 39 39 09 60 
    12.684000 1 22331503x Rx d 8 77 26 d6 25 7b 26 33 00 
    12.686000 1 22332101x Rx d 8 00 00 42 00 ee 00 04 02 
    12.694000 1 22331603x Rx d 8 46 00 c1 04 07 00 02 01 
    12.698000 1 22330600x Rx d 8 3e 0d 00 08 00 01 69 69 
    12.700000 1 22332102x Rx d 8 00 00 42 00 ca 00 04 02 
    12.701000 1 22013350x Rx d 8 0f 00 14 33 8d 33 00 0e 
    12.704000 1 22331703x Rx d 8 00 3f 00 00 00 00 f5 07 
    12.707000 1 22015001x Rx d 8 00 00 0a e3 1c 08 00 92 
    12.707000 1 22025001x Rx d 8 62 33 00 f8 00 00 00 64 
    12.707000 1 22035001x Rx d 8 35 10 3d 10 d6 00 dc 00 
    12.708000 1 22330700x Rx d 8 00 00 00 00 00 00 80 26 
    12.709000 1 22015000x Rx d 8 00 00 0e e3 1c 08 00 92 
    12.709000 1 22025000x Rx d 8 62 33 00 f8 00 00 00 63 
    12.709000 1 22035000x Rx d 8 33 10 41 10 d8 00 dc 00 
    12.742000 1 22015002x Rx d 8 00 00 1c e3 1c 08 00 92 
    12.742000 1 22025002x Rx d 8 63 33 00 f8 00 00 00 62 
    12.712000 1 22035002x Rx d 8 35 10 3f 10 dc 00 e6 00 
    12.714000 1 22332203x Rx d 8 05 74 10 00 d3 13 01 00 
    12.715000 1 22015003x Rx d 8 ec 33 35 e3 1c 08 00 92 
    12.715000 1 22025003x Rx d 8 62 33 00 f0 00 00 00 64 
    12.715000 1 22035003x Rx d 8 37 10 41 10 d8 00 de 00 
    12.719000 1 22330800x Rx d 8 00 00 00 00 fb 00 14 00 
    12.719000 1 22332100x Rx d 8 00 00 42 00 b4 01 04 02 
    12.725000 1 22331903x Rx d 8 6b 26 0a 00 12 00 01 00 
    12.729000 1 22330900x Rx d 8 3c 00 0a 02 00 1f 02 00 
    12.735000 1 22332103x Rx d 8 00 00 42 00 20 02 04 02 
    12.739000 1 22332000x Rx d 8 00 00 00 00 00 00 00 00 
    12.745000 1 22332203x Rx d 8 16 00 0a 27 e7 26 02 00 
    12.749000 1 22332b00x Rx d 8 00 00 2d 00 00 de 13 00 
    12.755000 1 22332303x Rx d 8 7b c1 00 00 8c 05 00 00 
    12.765000 1 22332403x Rx d 8 00 00 02 00 00 00 00 b5 
    12.769000 1 22331500x Rx d 8 71 26 0e 26 6e 26 33 00 
    12.775000 1 22332503x Rx d 8 02 03 00 00 00 00 1e 02 
    12.779000 1 22331600x Rx d 8 5a 00 bb 04 00 00 02 01 
    12.786000 1 22332101x Rx d 8 00 00 42 00 ee 00 04 02 
    12.789000 1 22331700x Rx d 8 00 3f 00 00 00 00 f7 07 
    12.799000 1 22332200x Rx d 8 6b f6 34 00 39 b5 00 00 
    12.800000 1 22332102x Rx d 8 00 00 42 00 ca 00 04 02 
    12.807000 1 22015001x Rx d 8 00 00 f7 e2 1c 08 00 a2 
    12.809000 1 22331900x Rx d 8 66 26 0c 00 02 00 01 00 
    12.810000 1 22015000x Rx d 8 00 00 fd e2 1c 08 00 a2 
    12.810000 1 22013350x Rx d 8 0f 00 14 33 8d 33 00 0f 
    12.842000 1 22015002x Rx d 8 00 00 0e e3 1c 08 00 a2 
    12.816000 1 22015003x Rx d 8 ec 33 2d e3 1c 08 00 a2 
    12.816000 1 22330101x Rx d 8 00 74 00 00 52 03 00 00 
    12.819000 1 22332100x Rx d 8 00 00 42 00 b4 01 04 02 
    12.829000 1 22332200x Rx d 8 15 00 06 27 8a 26 82 00 
    12.835000 1 22332103x Rx d 8 00 00 42 00 20 02 04 02 
    12.837000 1 22330301x Rx d 8 00 00 f7 e2 e0 fc 00 02 
    12.839000 1 22332300x Rx d 8 57 c6 00 00 8c 05 00 00 
    12.847000 1 22330401x Rx d 8 33 10 3b 10 38 39 0a 20 
    12.849000 1 22332400x Rx d 8 00 00 02 00 00 00 00 21 
    12.859000 1 22332500x Rx d 8 02 03 00 00 00 00 1f 02 
    12.867000 1 22330601x Rx d 8 3e 0e 00 08 00 01 69 69 
    12.877000 1 22330701x Rx d 8 00 00 00 00 00 00 0c 27 
    12.887000 1 22330801x Rx d 8 00 00 00 00 fb 00 f3 00 
    12.887000 1 22332101x Rx d 8 00 00 42 00 ee 00 04 02 
    12.901000 1 22332102x Rx d 8 00 00 42 00 ca 00 04 02 
    12.908000 1 22332001x Rx d 8 00 00 00 00 00 00 00 00 
    12.909000 1 22015001x Rx d 8 00 00 f5 e2 1c 08 00 b2 
    12.910000 1 22015000x Rx d 8 00 00 f5 e2 1c 08 00 b2 
    12.912000 1 22015002x Rx d 8 00 00 04 e3 1c 08 00 b2 
    12.916000 1 22015003x Rx d 8 ed 33 28 e3 1c 08 00 b2 
    12.922000 1 22332b01x Rx d 8 00 00 03 00 00 07 01 00 
    12.919000 1 22332100x Rx d 8 00 00 42 00 b4 01 04 02 
    12.920000 1 22013350x Rx d 8 0f 00 14 33 8d 33 00 10 
    12.935000 1 22332103x Rx d 8 00 00 42 00 20 02 04 02 
    12.938000 1 22331501x Rx d 8 5b 26 ba 25 71 26 33 00 
    12.948000 1 22331601x Rx d 8 49 00 d3 04 00 00 02 01 
    12.958000 1 22331701x Rx d 8 00 3f 00 00 01 00 f3 07 
    12.968000 1 22332201x Rx d 8 7f de 01 00 84 d2 00 00 
    12.978000 1 22331901x Rx d 8 52 26 08 00 12 00 01 00 
    12.988000 1 22332101x Rx d 8 00 00 42 00 ee 00 04 02 
    12.998000 1 22332201x Rx d 8 00 00 10 27 0c 27 82 00 
    13.001000 1 22330102x Rx d 8 00 74 00 00 7d 03 00 00 
    13.002000 1 22330302x Rx d 8 00 00 06 e3 e0 fc 00 02 
    13.002000 1 22330402x Rx d 8 33 10 41 10 39 3a 0a 48 
    13.002000 1 22330602x Rx d 8 3e 0d 00 08 00 01 69 69 
    13.003000 1 22330702x Rx d 8 00 00 00 00 00 00 1f 26 
    13.003000 1 22330802x Rx d 8 00 00 00 00 fd 00 1c 00 
    13.003000 1 22332002x Rx d 8 00 00 00 00 00 00 00 00 
    13.003000 1 22332b02x Rx d 8 00 00 7e 05 00 7d 27 00 
    13.004000 1 22331502x Rx d 8 8e 26 0e 26 8d 26 33 00 
    13.004000 1 22331602x Rx d 8 2c 00 b1 04 00 00 02 01 
    13.004000 1 22331702x Rx d 8 00 3f 00 00 00 00 f7 07 
    13.005000 1 22332202x Rx d 8 f1 ec 2f 00 63 e2 00 00 
    13.005000 1 22331902x Rx d 8 7d 26 0e 00 10 00 01 00 
    13.005000 1 22332102x Rx d 8 00 00 42 00 ca 00 04 02 
    13.005000 1 22332202x Rx d 8 20 00 99 26 96 26 00 04 
    13.006000 1 22332302x Rx d 8 3d c5 00 00 8c 05 00 00 
    13.006000 1 22332402x Rx d 8 00 00 01 00 00 00 00 b2 
    13.006000 1 22332502x Rx d 8 02 03 00 00 00 00 1f 02 
    13.008000 1 22332301x Rx d 8 dd c4 00 00 f8 04 00 00 
    13.009000 1 22015001x Rx d 8 00 00 f5 e2 1c 08 00 c2 
    13.010000 1 22015000x Rx d 8 00 00 f7 e2 1c 08 00 c2 
    13.013000 1 22015002x Rx d 8 00 00 06 e3 1c 08 00 c2 
    13.016000 1 22015003x Rx d 8 ed 33 2f e3 1c 08 00 c2 
    13.019000 1 22332100x Rx d 8 00 00 42 00 b4 01 04 02 
    13.019000 1 22332401x Rx d 8 00 00 02 00 00 00 1f 60 
    13.030000 1 22332501x Rx d 8 02 03 00 00 00 00 1f 02 
    13.035000 1 22332103x Rx d 8 00 00 42 00 20 02 04 02 
    13.040000 1 22013350x Rx d 8 0f 00 14 33 8d 33 00 42 
    13.085000 1 22330303x Rx d 8 ec 33 2d e3 e0 fc 00 02 
    13.090000 1 22332101x Rx d 8 00 00 42 00 ee 00 04 02 
    13.102000 1 22332102x Rx d 8 00 00 42 00 ca 00 04 02 
    13.420000 1 22015000x Rx d 8 00 00 f9 e2 1c 08 00 d2 
    13.421000 1 22015001x Rx d 8 00 00 f7 e2 1c 08 00 d2 
    13.423000 1 22015002x Rx d 8 00 00 02 e3 1c 08 00 d2 
    13.425000 1 22330603x Rx d 8 3e 0d 00 08 00 01 69 69 
    13.426000 1 22015003x Rx d 8 ed 33 24 e3 1c 08 00 d2 
    13.429000 1 22332100x Rx d 8 00 00 42 00 b4 01 04 02 
    13.135000 1 22332103x Rx d 8 00 00 42 00 20 02 04 02 
    13.143000 1 22013350x Rx d 8 0f 00 14 33 8d 33 00 12 
    13.155000 1 22332003x Rx d 8 00 00 00 00 00 00 00 00 
    13.169000 1 22330300x Rx d 8 00 00 f7 e2 e0 fc 00 02 
    13.190000 1 22332101x Rx d 8 00 00 42 00 ee 00 04 02 
    13.199000 1 22330600x Rx d 8 3e 0d 00 08 00 01 69 69 
    13.202000 1 22332102x Rx d 8 00 00 42 00 ca 00 04 02 
    13.210000 1 22015000x Rx d 8 00 00 f7 e2 1c 08 00 e2 
    13.242000 1 22015001x Rx d 8 00 00 f5 e2 1c 08 00 e2 
    13.213000 1 22015002x Rx d 8 00 00 00 e3 1c 08 00 e2 
    13.216000 1 22015003x Rx d 8 ec 33 26 e3 1c 08 00 e2 
    13.219000 1 22332100x Rx d 8 00 00 42 00 b4 01 04 02 
    13.235000 1 22332103x Rx d 8 00 00 42 00 20 02 04 02 
    13.239000 1 22332000x Rx d 8 00 00 00 00 00 00 00 00 
    13.250000 1 22013350x Rx d 8 0f 00 14 33 8d 33 00 13 
    13.290000 1 22332101x Rx d 8 00 00 42 00 ee 00 04 02 
    13.302000 1 22332102x Rx d 8 00 00 42 00 ca 00 04 02 
    13.310000 1 22015000x Rx d 8 00 00 f1 e2 1c 08 00 f2 
    13.342000 1 22015001x Rx d 8 00 00 f3 e2 1c 08 00 f2 
    13.313000 1 22015002x Rx d 8 00 00 04 e3 1c 08 00 f2 
    13.317000 1 22015003x Rx d 8 ed 33 24 e3 1c 08 00 f2 
    13.319000 1 22332100x Rx d 8 00 00 42 00 b4 01 04 02 
    13.336000 1 22332103x Rx d 8 00 00 42 00 20 02 04 02 
    13.341000 1 22330301x Rx d 8 f6 33 ef e2 e0 fc 00 02 
    13.361000 1 22013350x Rx d 8 0f 00 14 33 8d 33 00 14 
    13.371000 1 22330601x Rx d 8 3e 0e 00 08 00 01 69 69 
    13.391000 1 22332101x Rx d 8 00 00 42 00 ee 00 04 02 
    13.402000 1 22332102x Rx d 8 00 00 42 00 ca 00 04 02 
    13.410000 1 22015000x Rx d 8 f3 33 ed e2 1c 08 00 02 
    13.442000 1 22332001x Rx d 8 00 00 00 00 00 00 00 00 
    13.412000 1 22015001x Rx d 8 f3 33 ed e2 1c 08 00 02 
    13.413000 1 22015002x Rx d 8 f4 33 f5 e2 1c 08 00 02 
    13.417000 1 22015003x Rx d 8 e8 33 1a e3 1c 08 00 02 
    13.420000 1 22332100x Rx d 8 00 00 42 00 b4 01 04 02 
    13.436000 1 22332103x Rx d 8 00 00 42 00 20 02 04 02 
    13.470000 1 22013350x Rx d 8 0f 00 14 33 8d 33 00 15 
    13.491000 1 22332101x Rx d 8 00 00 42 00 ee 00 04 02 
    13.502000 1 22330302x Rx d 8 f6 33 f1 e2 e0 fc 00 02 
    13.503000 1 22330602x Rx d 8 3e 0d 00 08 00 01 69 69 
    13.503000 1 22332002x Rx d 8 00 00 00 00 00 00 00 00 
    13.503000 1 22332102x Rx d 8 00 00 42 00 ca 00 04 02 
    13.542000 1 22015000x Rx d 8 f6 33 e7 e2 1c 08 00 12 
    13.512000 1 22015001x Rx d 8 f6 33 df e2 1c 08 00 12 
    13.513000 1 22015002x Rx d 8 f6 33 f1 e2 1c 08 00 12 
    13.517000 1 22015003x Rx d 8 ea 33 12 e3 1c 08 00 12 
    13.520000 1 22332100x Rx d 8 00 00 42 00 b4 01 04 02 
    13.536000 1 22332103x Rx d 8 00 00 42 00 20 02 04 02 
    13.566000 1 22330103x Rx d 8 00 74 00 00 6b 03 00 00 
    13.581000 1 22013350x Rx d 8 0f 00 14 33 8d 33 00 16 
    13.586000 1 22330303x Rx d 8 ec 33 10 e3 e0 fc 00 02 
    13.592000 1 22332101x Rx d 8 00 00 42 00 ee 00 04 02 
    13.596000 1 22330403x Rx d 8 35 10 3f 10 39 39 0a 22 
    13.602000 1 22332102x Rx d 8 00 00 42 00 ca 00 04 02 
    13.606000 1 22330503x Rx d 8 32 30 36 30 30 30 35 53 
    13.642000 1 22015000x Rx d 8 f8 33 e7 e2 1c 08 00 22 
    13.613000 1 22015002x Rx d 8 f8 33 f3 e2 1c 08 00 22 
    13.614000 1 22015001x Rx d 8 f8 33 e9 e2 1c 08 00 22 
    13.616000 1 22330603x Rx d 8 3e 0d 00 08 00 01 69 69 
    13.617000 1 22015003x Rx d 8 ec 33 14 e3 1c 08 00 22 
    13.620000 1 22332100x Rx d 8 00 00 42 00 b4 01 04 02 
    13.626000 1 22330703x Rx d 8 00 00 00 00 00 00 e1 26 
    13.636000 1 22330803x Rx d 8 00 00 00 00 f4 00 37 01 
    13.636000 1 22332103x Rx d 8 00 00 42 00 20 02 04 02 
    13.646000 1 22330903x Rx d 8 38 00 a1 00 00 b0 00 00 
    13.650000 1 22330100x Rx d 8 00 74 00 00 66 03 00 00 
    13.656000 1 22332003x Rx d 8 00 00 00 00 00 00 00 00 
    13.666000 1 22332b03x Rx d 8 00 00 0e 00 00 4c 01 00 
    13.670000 1 22330300x Rx d 8 f8 33 e7 e2 e0 fc 00 02 
    13.680000 1 22330400x Rx d 8 33 10 3d 10 39 39 0a 20 
    13.686000 1 22331503x Rx d 8 76 26 ba 25 7b 26 33 00 
    13.691000 1 22013350x Rx d 8 0f 00 14 33 8d 33 00 17 
    13.693000 1 22332101x Rx d 8 00 00 42 00 ee 00 04 02 
    13.696000 1 22331603x Rx d 8 50 00 c2 04 08 00 02 01 
    13.700000 1 22330600x Rx d 8 3e 0d 00 08 00 01 69 69 
    13.702000 1 22332102x Rx d 8 00 00 42 00 ca 00 04 02 
    13.706000 1 22331703x Rx d 8 00 3f 00 00 00 00 f5 07 
    13.710000 1 22330700x Rx d 8 00 00 00 00 00 00 80 26 
    13.742000 1 22015000x Rx d 8 f8 33 eb e2 1c 08 00 32 
    13.742000 1 22025000x Rx d 8 62 33 00 f8 00 00 00 63 
    13.742000 1 22035000x Rx d 8 33 10 3d 10 d8 00 dd 00 
    13.713000 1 22015002x Rx d 8 00 00 f7 e2 1c 08 00 32 
    13.713000 1 22025002x Rx d 8 63 33 00 f8 00 00 00 62 
    13.714000 1 22035002x Rx d 8 33 10 3d 10 dc 00 e6 00 
    13.714000 1 22015001x Rx d 8 f8 33 e5 e2 1c 08 00 32 
    13.714000 1 22025001x Rx d 8 62 33 00 f8 00 00 00 64 
    13.714000 1 22035001x Rx d 8 33 10 39 10 d7 00 dd 00 
    13.716000 1 22332203x Rx d 8 05 74 10 00 bd 17 01 00 
    13.717000 1 22015003x Rx d 8 ec 33 22 e3 1c 08 00 32 
    13.717000 1 22025003x Rx d 8 62 33 00 f0 00 00 00 64 
    13.717000 1 22035003x Rx d 8 35 10 3f 10 d7 00 df 00 
    13.721000 1 22330800x Rx d 8 00 00 00 00 fb 00 14 00 
    13.721000 1 22332100x Rx d 8 00 00 42 00 b4 01 04 02 
    13.727000 1 22331903x Rx d 8 6b 26 0a 00 12 00 01 00 
    13.737000 1 22332103x Rx d 8 00 00 42 00 20 02 04 02 
    13.741000 1 22332000x Rx d 8 00 00 00 00 00 00 00 00 
    13.747000 1 22332203x Rx d 8 16 00 0a 27 e7 26 02 00 
    13.751000 1 22332b00x Rx d 8 00 00 2d 00 00 de 13 00 
    13.757000 1 22332303x Rx d 8 7c c1 00 00 8c 05 00 00 
    13.767000 1 22332403x Rx d 8 00 00 02 00 00 00 00 4b 
    13.771000 1 22331500x Rx d 8 71 26 66 25 6e 26 33 00 
    13.777000 1 22332503x Rx d 8 02 03 00 00 00 00 1e 02 
    13.781000 1 22331600x Rx d 8 00 00 bc 04 00 00 02 01 
    13.791000 1 22331700x Rx d 8 00 3f 00 00 00 00 f7 07 
    13.793000 1 22332101x Rx d 8 00 00 42 00 ee 00 04 02 
    13.801000 1 22013350x Rx d 8 0f 00 14 33 8d 33 00 22 
    13.801000 1 22332200x Rx d 8 6c f6 34 00 23 b9 00 00 
    13.802000 1 22332102x Rx d 8 00 00 42 00 ca 00 04 02 
    13.842000 1 22331900x Rx d 8 66 26 0a 00 02 00 01 00 
    13.812000 1 22015000x Rx d 8 00 00 ef e2 1c 08 00 42 
    13.813000 1 22015002x Rx d 8 00 00 f9 e2 1c 08 00 42 
    13.814000 1 22015001x Rx d 8 00 00 f1 e2 1c 08 00 42 
    13.822000 1 22015003x Rx d 8 ed 33 1a e3 1c 08 00 42 
    13.821000 1 22332100x Rx d 8 00 00 42 00 b4 01 04 02 
    13.823000 1 22330101x Rx d 8 00 74 00 00 52 03 00 00 
    13.837000 1 22332103x Rx d 8 00 00 42 00 20 02 04 02 
    13.843000 1 22330301x Rx d 8 00 00 f1 e2 e0 fc 00 02 
    13.853000 1 22330401x Rx d 8 33 10 3b 10 38 39 0a 20 
    13.856000 1 22332200x Rx d 8 15 00 06 27 8a 26 82 00 
    13.866000 1 22332300x Rx d 8 58 c6 00 00 8c 05 00 00 
    13.873000 1 22330601x Rx d 8 3e 0e 00 08 00 01 69 69 
    13.876000 1 22332400x Rx d 8 00 00 02 00 00 00 00 3d 
    13.883000 1 22330701x Rx d 8 00 00 00 00 00 00 0c 27 
    13.886000 1 22332500x Rx d 8 02 03 00 00 00 00 1f 02 
    13.893000 1 22330801x Rx d 8 00 00 00 00 fb 00 f3 00 
    13.893000 1 22332101x Rx d 8 00 00 42 00 ee 00 04 02 
    13.902000 1 22332102x Rx d 8 00 00 42 00 ca 00 04 02 
    13.910000 1 22013350x Rx d 8 0f 00 14 33 8e 33 00 19 
    13.913000 1 22332001x Rx d 8 00 00 00 00 00 00 00 00 
    13.913000 1 22015002x Rx d 8 00 00 02 e3 1c 08 00 52 
    13.914000 1 22015001x Rx d 8 00 00 f3 e2 1c 08 00 52 
    13.922000 1 22015003x Rx d 8 ed 33 1a e3 1c 08 00 52 
    13.923000 1 22332b01x Rx d 8 00 00 03 00 00 07 01 00 
    13.937000 1 22015000x Rx d 8 f8 33 f3 e2 1c 08 00 52 
    13.937000 1 22332103x Rx d 8 00 00 42 00 20 02 04 02 
    13.943000 1 22331501x Rx d 8 5a 26 ba 25 71 26 33 00 
    13.946000 1 22332100x Rx d 8 00 00 42 00 b4 01 04 02 
    13.953000 1 22331601x Rx d 8 53 00 d3 04 00 00 02 01 
    13.963000 1 22331701x Rx d 8 00 3f 00 00 01 00 f3 07 
    13.973000 1 22332201x Rx d 8 7f de 01 00 71 d6 00 00 
    13.983000 1 22331901x Rx d 8 52 26 08 00 12 00 01 00 
    13.993000 1 22332101x Rx d 8 00 00 42 00 ee 00 04 02 
    14.002000 1 22330102x Rx d 8 00 74 00 00 7d 03 00 00 
    14.003000 1 22330302x Rx d 8 00 00 04 e3 e0 fc 00 02 
    14.003000 1 22330402x Rx d 8 33 10 41 10 39 3a 0a 43 
    14.003000 1 22330602x Rx d 8 3e 0d 00 08 00 01 69 69 
    14.004000 1 22330702x Rx d 8 00 00 00 00 00 00 1f 26 
    14.004000 1 22330802x Rx d 8 00 00 00 00 fd 00 1c 00 
    14.004000 1 22332002x Rx d 8 00 00 00 00 00 00 00 00 
    14.004000 1 22332201x Rx d 8 00 00 10 27 0c 27 82 00 
    14.005000 1 22332b02x Rx d 8 00 00 7e 05 00 7d 27 00 
    14.005000 1 22331502x Rx d 8 8d 26 0e 26 8d 26 33 00 
    14.005000 1 22331602x Rx d 8 36 00 b0 04 00 00 02 01 
    14.006000 1 22331702x Rx d 8 00 3f 00 00 00 00 f7 07 
    14.006000 1 22332202x Rx d 8 f2 ec 2f 00 4c e6 00 00 
    14.006000 1 22331902x Rx d 8 7d 26 0e 00 10 00 01 00 
    14.006000 1 22332102x Rx d 8 00 00 42 00 ca 00 04 02 
    14.007000 1 22332202x Rx d 8 20 00 99 26 96 26 00 04 
    14.007000 1 22332302x Rx d 8 3e c5 00 00 8c 05 00 00 
    14.007000 1 22332402x Rx d 8 00 00 01 00 00 00 00 d3 
    14.008000 1 22332502x Rx d 8 02 03 00 00 00 00 1f 02 
    14.013000 1 22332301x Rx d 8 de c4 00 00 f8 04 00 00 
    14.014000 1 22015001x Rx d 8 00 00 f1 e2 1c 08 00 62 
    14.014000 1 22015002x Rx d 8 00 00 04 e3 1c 08 00 62 
    14.019000 1 22015003x Rx d 8 ed 33 1a e3 1c 08 00 62 
    14.021000 1 22013350x Rx d 8 0f 00 14 33 8d 33 00 1a 
    14.023000 1 22332401x Rx d 8 00 00 02 00 00 00 1f d4 
    14.033000 1 22332501x Rx d 8 02 03 00 00 00 00 1f 02 
    14.037000 1 22015000x Rx d 8 00 00 f3 e2 1c 08 00 62 
    14.038000 1 22332103x Rx d 8 00 00 42 00 20 02 04 02 
    14.046000 1 22332100x Rx d 8 00 00 42 00 b4 01 04 02 
    14.088000 1 22330303x Rx d 8 ed 33 1c e3 e0 fc 00 02 
    14.093000 1 22332101x Rx d 8 00 00 42 00 ee 00 04 02 
    14.103000 1 22332102x Rx d 8 00 00 42 00 ca 00 04 02 
    14.424000 1 22015001x Rx d 8 f8 33 eb e2 1c 08 00 72 
    14.424000 1 22015002x Rx d 8 00 00 04 e3 1c 08 00 72 
    14.122000 1 22330603x Rx d 8 3e 0d 00 08 00 01 69 69 
    14.429000 1 22015003x Rx d 8 ec 33 1c e3 1c 08 00 72 
    14.137000 1 22015000x Rx d 8 f8 33 f1 e2 1c 08 00 72 
    14.138000 1 22332103x Rx d 8 00 00 42 00 20 02 04 02 
    14.140000 1 22013350x Rx d 8 0f 00 14 33 8e 33 00 1b 
    14.146000 1 22332100x Rx d 8 00 00 42 00 b4 01 04 02 
    14.158000 1 22332003x Rx d 8 00 00 00 00 00 00 00 00 
    14.193000 1 22332101x Rx d 8 00 00 42 00 ee 00 04 02 
    14.196000 1 22330300x Rx d 8 f8 33 f1 e2 e0 fc 00 02 
    14.203000 1 22332102x Rx d 8 00 00 42 00 ca 00 04 02 
    14.214000 1 22015001x Rx d 8 f6 33 e9 e2 1c 08 00 82 
    14.214000 1 22015002x Rx d 8 f8 33 00 e3 1c 08 00 82 
    14.219000 1 22015003x Rx d 8 ec 33 1c e3 1c 08 00 82 
    14.226000 1 22330600x Rx d 8 3e 0d 00 08 00 01 69 69 
    14.237000 1 22015000x Rx d 8 f6 33 ef e2 1c 08 00 82 
    14.238000 1 22332103x Rx d 8 00 00 42 00 20 02 04 02 
    14.241000 1 22013350x Rx d 8 0f 00 14 33 8e 33 00 1c 
    14.246000 1 22332100x Rx d 8 00 00 42 00 b4 01 04 02 
    14.266000 1 22332000x Rx d 8 00 00 00 00 00 00 00 00 
    14.293000 1 22332101x Rx d 8 00 00 42 00 ee 00 04 02 
    14.303000 1 22332102x Rx d 8 00 00 42 00 ca 00 04 02 
    14.314000 1 22015001x Rx d 8 f4 33 e1 e2 1c 08 00 92 
    14.314000 1 22015002x Rx d 8 f8 33 f7 e2 1c 08 00 92 
    14.319000 1 22015003x Rx d 8 ea 33 12 e3 1c 08 00 92 
    14.337000 1 22015000x Rx d 8 f8 33 ed e2 1c 08 00 92 
    14.338000 1 22332103x Rx d 8 00 00 42 00 20 02 04 02 
    14.343000 1 22330301x Rx d 8 f6 33 e5 e2 e0 fc 00 02 
    14.346000 1 22332100x Rx d 8 00 00 42 00 b4 01 04 02 
    14.351000 1 22013350x Rx d 8 0f 00 14 33 8e 33 00 1d 
    14.373000 1 22330601x Rx d 8 3e 0e 00 08 00 01 69 69 
    14.393000 1 22332101x Rx d 8 00 00 42 00 ee 00 04 02 
    14.403000 1 22332102x Rx d 8 00 00 42 00 ca 00 04 02 
    14.413000 1 22332001x Rx d 8 00 00 00 00 00 00 00 00 
    14.414000 1 22015001x Rx d 8 f8 33 e3 e2 1c 08 00 a2 
    14.414000 1 22015002x Rx d 8 00 00 f7 e2 1c 08 00 a2 
    14.419000 1 22015003x Rx d 8 ec 33 14 e3 1c 08 00 a2 
    14.437000 1 22015000x Rx d 8 f8 33 e9 e2 1c 08 00 a2 
    14.438000 1 22332103x Rx d 8 00 00 42 00 20 02 04 02 
    14.446000 1 22332100x Rx d 8 00 00 42 00 b4 01 04 02 
    14.461000 1 22013350x Rx d 8 0f 00 14 33 8e 33 00 1e 
    14.493000 1 22332101x Rx d 8 00 00 42 00 ee 00 04 02 
    14.503000 1 22330302x Rx d 8 00 00 f9 e2 e0 fc 00 02 
    14.504000 1 22330602x Rx d 8 3e 0d 00 08 00 01 69 69 
    14.504000 1 22332002x Rx d 8 00 00 00 00 00 00 00 00 
    14.504000 1 22332102x Rx d 8 00 00 42 00 ca 00 04 02 
    14.514000 1 22015001x Rx d 8 f8 33 eb e2 1c 08 00 b2 
    14.515000 1 22015002x Rx d 8 00 00 f9 e2 1c 08 00 b2 
    14.519000 1 22015003x Rx d 8 ec 33 1e e3 1c 08 00 b2 
    14.537000 1 22015000x Rx d 8 f8 33 ed e2 1c 08 00 b2 
    14.538000 1 22332103x Rx d 8 00 00 42 00 20 02 04 02 
    14.546000 1 22332100x Rx d 8 00 00 42 00 b4 01 04 02 
    14.568000 1 22330103x Rx d 8 00 74 00 00 6b 03 00 00 
    14.571000 1 22013350x Rx d 8 0f 00 14 33 8e 33 00 1f 
    14.588000 1 22330303x Rx d 8 ec 33 1c e3 e0 fc 00 02 
    14.593000 1 22332101x Rx d 8 00 00 42 00 ee 00 04 02 
    14.598000 1 22330403x Rx d 8 35 10 41 10 38 3a 0a 38 
    14.605000 1 22332102x Rx d 8 00 00 42 00 ca 00 04 02 
    14.614000 1 22015001x Rx d 8 f8 33 eb e2 1c 08 00 c2 
    14.616000 1 22015002x Rx d 8 00 00 f9 e2 1c 08 00 c2 
    14.622000 1 22330603x Rx d 8 3e 0d 00 08 00 01 69 69 
    14.619000 1 22015003x Rx d 8 ec 33 1e e3 1c 08 00 c2 
    14.628000 1 22330703x Rx d 8 00 00 00 00 00 00 e1 26 
    14.637000 1 22015000x Rx d 8 f8 33 eb e2 1c 08 00 c2 
    14.638000 1 22330803x Rx d 8 00 00 00 00 f4 00 37 01 
    14.638000 1 22332103x Rx d 8 00 00 42 00 20 02 04 02 
    14.646000 1 22332100x Rx d 8 00 00 42 00 b4 01 04 02 
    14.658000 1 22332003x Rx d 8 00 00 00 00 00 00 00 00 
    14.668000 1 22332b03x Rx d 8 00 00 0e 00 00 4c 01 00 
    14.676000 1 22330100x Rx d 8 00 74 00 00 66 03 00 00 
    14.681000 1 22013350x Rx d 8 0f 00 14 33 8d 33 00 20 
    14.688000 1 22331503x Rx d 8 75 26 ba 25 7b 26 33 00 
    14.693000 1 22332101x Rx d 8 00 00 42 00 ee 00 04 02 
    14.696000 1 22330300x Rx d 8 f8 33 f1 e2 e0 fc 00 02 
    14.698000 1 22331603x Rx d 8 5a 00 c2 04 09 00 02 01 
    14.705000 1 22332102x Rx d 8 00 00 42 00 ca 00 04 02 
    14.706000 1 22330400x Rx d 8 33 10 3d 10 39 39 0a 40 
    14.708000 1 22331703x Rx d 8 00 3f 00 00 00 00 f5 07 
    14.715000 1 22015001x Rx d 8 f8 33 ed e2 1c 08 00 d2 
    14.715000 1 22025001x Rx d 8 62 33 00 f8 00 00 00 64 
    14.715000 1 22035001x Rx d 8 33 10 3b 10 d6 00 dc 00 
    14.716000 1 22015002x Rx d 8 f8 33 f7 e2 1c 08 00 d2 
    14.716000 1 22025002x Rx d 8 63 33 00 f8 00 00 00 62 
    14.717000 1 22035002x Rx d 8 33 10 3f 10 dc 00 e7 00 
    14.722000 1 22332203x Rx d 8 05 74 10 00 a7 1b 01 00 
    14.719000 1 22015003x Rx d 8 ec 33 1c e3 1c 08 00 d2 
    14.719000 1 22025003x Rx d 8 62 33 00 f0 00 00 00 64 
    14.719000 1 22035003x Rx d 8 35 10 41 10 d8 00 e0 00 
    14.726000 1 22330600x Rx d 8 3e 0d 00 08 00 01 69 69 
    14.728000 1 22331903x Rx d 8 6b 26 0e 00 12 00 01 00 
    14.736000 1 22330700x Rx d 8 00 00 00 00 00 00 80 26 
    14.737000 1 22015000x Rx d 8 f8 33 ef e2 1c 08 00 d2 
    14.737000 1 22025000x Rx d 8 62 33 00 f8 00 00 00 63 
    14.737000 1 22035000x Rx d 8 33 10 3d 10 d8 00 dd 00 
    14.738000 1 22332103x Rx d 8 00 00 42 00 20 02 04 02 
    14.747000 1 22330800x Rx d 8 00 00 00 00 fb 00 14 00 
    14.747000 1 22332100x Rx d 8 00 00 42 00 b4 01 04 02 
    14.748000 1 22332203x Rx d 8 16 00 0a 27 e7 26 02 00 
    14.758000 1 22332303x Rx d 8 7d c1 00 00 8c 05 00 00 
    14.768000 1 22332000x Rx d 8 00 00 00 00 00 00 00 00 
    14.768000 1 22332403x Rx d 8 00 00 02 00 00 00 00 92 
    14.778000 1 22332503x Rx d 8 02 03 00 00 00 00 1e 02 
    14.778000 1 22332b00x Rx d 8 00 00 2d 00 00 de 13 00 
    14.791000 1 22013350x Rx d 8 0f 00 14 33 8e 33 00 21 
    14.795000 1 22332101x Rx d 8 00 00 42 00 ee 00 04 02 
    14.798000 1 22331500x Rx d 8 70 26 66 25 6e 26 33 00 
    14.805000 1 22332102x Rx d 8 00 00 42 00 ca 00 04 02 
    14.808000 1 22331600x Rx d 8 0a 00 bd 04 00 00 00 01 
    14.816000 1 22015001x Rx d 8 f8 33 ef e2 1c 08 00 e2 
    14.816000 1 22015002x Rx d 8 00 00 fb e2 1c 08 00 e2 
    14.822000 1 22331700x Rx d 8 00 3f 00 00 00 00 f7 07 
    14.819000 1 22015003x Rx d 8 ed 33 16 e3 1c 08 00 e2 
    14.825000 1 22330101x Rx d 8 00 74 00 00 52 03 00 00 
    14.828000 1 22332200x Rx d 8 6d f6 34 00 26 bd 00 00 
    14.838000 1 22331900x Rx d 8 66 26 0a 00 02 00 01 00 
    14.839000 1 22015000x Rx d 8 f8 33 f3 e2 1c 08 00 e2 
    14.839000 1 22332103x Rx d 8 00 00 42 00 20 02 04 02 
    14.846000 1 22330301x Rx d 8 f8 33 ed e2 e0 fc 00 02 
    14.848000 1 22332100x Rx d 8 00 00 42 00 b4 01 04 02 
    14.856000 1 22330401x Rx d 8 33 10 3b 10 38 39 0a 40 
    14.858000 1 22332200x Rx d 8 15 00 06 27 8a 26 82 00 
    14.868000 1 22332300x Rx d 8 59 c6 00 00 8c 05 00 00 
    14.876000 1 22330601x Rx d 8 3e 0e 00 08 00 01 69 69 
    14.878000 1 22332400x Rx d 8 00 00 02 00 00 00 00 72 
    14.886000 1 22330701x Rx d 8 00 00 00 00 00 00 0c 27 
    14.888000 1 22332500x Rx d 8 02 03 00 00 00 00 1e 02 
    14.896000 1 22330801x Rx d 8 00 00 00 00 fb 00 f3 00 
    14.896000 1 22332101x Rx d 8 00 00 42 00 ee 00 04 02 
    14.901000 1 22013350x Rx d 8 0f 00 14 33 8e 33 00 22 
    14.905000 1 22332102x Rx d 8 00 00 42 00 ca 00 04 02 
    14.906000 1 22330901x Rx d 8 0e 00 20 00 00 24 00 00 
    14.916000 1 22332001x Rx d 8 00 00 00 00 00 00 00 00 
    14.916000 1 22015002x Rx d 8 00 00 f5 e2 1c 08 00 f2 
    14.917000 1 22015001x Rx d 8 f8 33 eb e2 1c 08 00 f2 
    14.920000 1 22015003x Rx d 8 ec 33 16 e3 1c 08 00 f2 
    14.926000 1 22332b01x Rx d 8 00 00 03 00 00 07 01 00 
    14.939000 1 22015000x Rx d 8 f8 33 f1 e2 1c 08 00 f2 
    14.939000 1 22332103x Rx d 8 00 00 42 00 20 02 04 02 
    14.946000 1 22331501x Rx d 8 5a 26 66 25 71 26 33 00 
    14.948000 1 22332100x Rx d 8 00 00 42 00 b4 01 04 02 
    14.956000 1 22331601x Rx d 8 5d 00 d3 04 00 00 02 01 
    14.966000 1 22331701x Rx d 8 00 3f 00 00 01 00 f3 07 
    14.976000 1 22332201x Rx d 8 7f de 01 00 5c da 00 00 
    14.986000 1 22331901x Rx d 8 52 26 08 00 12 00 01 00 
    14.996000 1 22332101x Rx d 8 00 00 42 00 ee 00 04 02 
    15.005000 1 22330102x Rx d 8 00 74 00 00 7d 03 00 00 
    15.006000 1 22330302x Rx d 8 00 00 f3 e2 e0 fc 00 02 
    15.006000 1 22330402x Rx d 8 33 10 3f 10 39 3a 0a 30 
    15.006000 1 22330602x Rx d 8 3e 0d 00 08 00 01 69 69 
    15.006000 1 22330702x Rx d 8 00 00 00 00 00 00 1f 26 
    15.007000 1 22330802x Rx d 8 00 00 00 00 fd 00 1c 00 
    15.007000 1 22332002x Rx d 8 00 00 00 00 00 00 00 00 
    15.007000 1 22332201x Rx d 8 00 00 10 27 0c 27 82 00 
    15.008000 1 22332b02x Rx d 8 00 00 7e 05 00 7d 27 00 
    15.008000 1 22331502x Rx d 8 8c 26 f2 25 8d 26 33 00 
    15.008000 1 22331602x Rx d 8 40 00 b1 04 00 00 02 01 
    15.008000 1 22331702x Rx d 8 00 3f 00 00 00 00 f7 07 
    15.009000 1 22332202x Rx d 8 f3 ec 2f 00 37 ea 00 00 
    15.009000 1 22331902x Rx d 8 7d 26 0c 00 10 00 01 00 
    15.009000 1 22332102x Rx d 8 00 00 42 00 ca 00 04 02 
    15.010000 1 22332202x Rx d 8 20 00 99 26 96 26 00 04 
    15.010000 1 22332302x Rx d 8 3f c5 00 00 8c 05 00 00 
    15.010000 1 22332402x Rx d 8 00 00 01 00 00 00 00 6a 
    15.010000 1 22332502x Rx d 8 02 03 00 00 00 00 1f 02 
    15.042000 1 22013350x Rx d 8 0f 00 14 33 8e 33 00 23 
    15.016000 1 22332301x Rx d 8 df c4 00 00 f8 04 00 00 
    15.017000 1 22015001x Rx d 8 00 00 e5 e2 1c 08 00 02 
    15.017000 1 22015002x Rx d 8 00 00 f7 e2 1c 08 00 02 
    15.020000 1 22015003x Rx d 8 ed 33 1a e3 1c 08 00 02 
    15.026000 1 22332401x Rx d 8 00 00 02 00 00 00 1f 2b 
    15.036000 1 22332501x Rx d 8 02 03 00 00 00 00 1e 02 
    15.039000 1 22015000x Rx d 8 f8 33 ef e2 1c 08 00 02 
    15.039000 1 22332103x Rx d 8 00 00 42 00 20 02 04 02 
    15.048000 1 22332100x Rx d 8 00 00 42 00 b4 01 04 02 
    15.089000 1 22330303x Rx d 8 ed 33 14 e3 e0 fc 00 02 
    15.096000 1 22332101x Rx d 8 00 00 42 00 ee 00 04 02 
    15.106000 1 22332102x Rx d 8 00 00 42 00 ca 00 04 02 
    15.427000 1 22015001x Rx d 8 00 00 e9 e2 1c 08 00 12 
    15.427000 1 22015002x Rx d 8 00 00 fd e2 1c 08 00 12 
    15.429000 1 22330603x Rx d 8 3e 0d 00 08 00 01 69 69 
    15.120000 1 22015003x Rx d 8 ec 33 16 e3 1c 08 00 12 
    15.121000 1 22013350x Rx d 8 0f 00 14 33 8e 33 00 24 
    15.139000 1 22015000x Rx d 8 f8 33 ef e2 1c 08 00 12 
    15.139000 1 22332103x Rx d 8 00 00 42 00 20 02 04 02 
    15.148000 1 22332100x Rx d 8 00 00 42 00 b4 01 04 02 
    15.159000 1 22332003x Rx d 8 00 00 00 00 00 00 00 00 
    15.196000 1 22332101x Rx d 8 00 00 42 00 ee 00 04 02 
    15.198000 1 22330300x Rx d 8 f8 33 e9 e2 e0 fc 00 02 
    15.206000 1 22332102x Rx d 8 00 00 42 00 ca 00 04 02 
    15.217000 1 22015001x Rx d 8 00 00 ed e2 1c 08 00 22 
    15.217000 1 22015002x Rx d 8 f8 33 fd e2 1c 08 00 22 
    15.220000 1 22015003x Rx d 8 ed 33 22 e3 1c 08 00 22 
    15.228000 1 22330600x Rx d 8 3e 0d 00 08 00 01 69 69 
    15.239000 1 22013350x Rx d 8 0f 00 14 33 8e 33 00 25 
    15.239000 1 22015000x Rx d 8 f8 33 e9 e2 1c 08 00 22 
    15.239000 1 22332103x Rx d 8 00 00 42 00 20 02 04 02 
    15.248000 1 22332100x Rx d 8 00 00 42 00 b4 01 04 02 
    15.268000 1 22332000x Rx d 8 00 00 00 00 00 00 00 00 
    15.296000 1 22332101x Rx d 8 00 00 42 00 ee 00 04 02 
    15.306000 1 22332102x Rx d 8 00 00 42 00 ca 00 04 02 
    15.317000 1 22015001x Rx d 8 00 00 ed e2 1c 08 00 32 
    15.317000 1 22015002x Rx d 8 00 00 f5 e2 1c 08 00 32 
    15.321000 1 22015003x Rx d 8 ed 33 1c e3 1c 08 00 32 
    15.339000 1 22015000x Rx d 8 f8 33 ed e2 1c 08 00 32 
    15.340000 1 22332103x Rx d 8 00 00 42 00 20 02 04 02 
    15.341000 1 22013350x Rx d 8 0f 00 14 33 8e 33 00 26 
    15.346000 1 22330301x Rx d 8 f8 33 ed e2 e0 fc 00 02 
    15.348000 1 22332100x Rx d 8 00 00 42 00 b4 01 04 02 
    15.376000 1 22330601x Rx d 8 3e 0e 00 08 00 01 69 69 
    15.396000 1 22332101x Rx d 8 00 00 42 00 ee 00 04 02 
    15.406000 1 22332102x Rx d 8 00 00 42 00 ca 00 04 02 
    15.416000 1 22332001x Rx d 8 00 00 00 00 00 00 00 00 
    15.417000 1 22015001x Rx d 8 f8 33 ef e2 1c 08 00 42 
    15.417000 1 22015002x Rx d 8 00 00 f7 e2 1c 08 00 42 
    15.421000 1 22015003x Rx d 8 ec 33 1e e3 1c 08 00 42 
    15.439000 1 22015000x Rx d 8 f8 33 f3 e2 1c 08 00 42 
    15.440000 1 22332103x Rx d 8 00 00 42 00 20 02 04 02 
    15.448000 1 22332100x Rx d 8 00 00 42 00 b4 01 04 02 
    15.451000 1 22013350x Rx d 8 0f 00 14 33 8e 33 00 27 
    15.496000 1 22332101x Rx d 8 00 00 42 00 ee 00 04 02 
    15.506000 1 22330302x Rx d 8 00 00 00 e3 e0 fc 00 02 
    15.507000 1 22330602x Rx d 8 3e 0d 00 08 00 01 69 69 
    15.507000 1 22332002x Rx d 8 00 00 00 00 00 00 00 00 
    15.507000 1 22332102x Rx d 8 00 00 42 00 ca 00 04 02 
    15.517000 1 22015001x Rx d 8 f8 33 ed e2 1c 08 00 52 
    15.517000 1 22015002x Rx d 8 00 00 00 e3 1c 08 00 52 
    15.521000 1 22015003x Rx d 8 ed 33 1a e3 1c 08 00 52 
    15.539000 1 22015000x Rx d 8 f8 33 e9 e2 1c 08 00 52 
    15.540000 1 22332103x Rx d 8 00 00 42 00 20 02 04 02 
    15.548000 1 22332100x Rx d 8 00 00 42 00 b4 01 04 02 
    15.561000 1 22013350x Rx d 8 0f 00 14 33 8e 33 00 28 
    15.570000 1 22330103x Rx d 8 00 74 00 00 6b 03 00 00 
    15.590000 1 22330303x Rx d 8 ec 33 1e e3 e0 fc 00 02 
    15.596000 1 22332101x Rx d 8 00 00 42 00 ee 00 04 02 
    15.600000 1 22330403x Rx d 8 35 10 3f 10 39 39 0a 38 
    15.606000 1 22332102x Rx d 8 00 00 42 00 ca 00 04 02 
    15.617000 1 22015001x Rx d 8 f8 33 e7 e2 1c 08 00 62 
    15.617000 1 22015002x Rx d 8 00 00 00 e3 1c 08 00 62 
    15.620000 1 22330603x Rx d 8 3e 0d 00 08 00 01 69 69 
    15.621000 1 22015003x Rx d 8 ec 33 1e e3 1c 08 00 62 
    15.630000 1 22330703x Rx d 8 00 00 00 00 00 00 e1 26 
    15.639000 1 22015000x Rx d 8 00 00 eb e2 1c 08 00 62 
    15.640000 1 22330803x Rx d 8 00 00 00 00 f4 00 37 01 
    15.640000 1 22332103x Rx d 8 00 00 42 00 20 02 04 02 
    15.648000 1 22332100x Rx d 8 00 00 42 00 b4 01 04 02 
    15.660000 1 22332003x Rx d 8 00 00 00 00 00 00 00 00 
    15.670000 1 22332b03x Rx d 8 00 00 0e 00 00 4c 01 00 
    15.671000 1 22013350x Rx d 8 0f 00 14 33 8e 33 00 29 
    15.678000 1 22330100x Rx d 8 00 74 00 00 66 03 00 00 
    15.690000 1 22331503x Rx d 8 74 26 ba 25 7b 26 33 00 
    15.696000 1 22332101x Rx d 8 00 00 42 00 ee 00 04 02 
    15.698000 1 22330300x Rx d 8 f8 33 ef e2 e0 fc 00 02 
    15.700000 1 22331603x Rx d 8 00 00 c1 04 08 00 02 01 
    15.708000 1 22330400x Rx d 8 33 10 3d 10 39 39 0a 40 
    15.710000 1 22331703x Rx d 8 00 3f 00 00 00 00 f5 07 
    15.715000 1 22332102x Rx d 8 00 00 42 00 ca 00 04 02 
    15.720000 1 22332203x Rx d 8 05 74 10 00 91 1f 01 00 
    15.721000 1 22015003x Rx d 8 ed 33 1a e3 1c 08 00 72 
    15.721000 1 22025003x Rx d 8 62 33 00 f0 00 00 00 64 
    15.721000 1 22035003x Rx d 8 35 10 3f 10 d8 00 df 00 
    15.726000 1 22015002x Rx d 8 f8 33 0c e3 1c 08 00 72 
    15.726000 1 22025002x Rx d 8 63 33 00 f8 00 00 00 62 
    15.726000 1 22035002x Rx d 8 35 10 3f 10 dc 00 e7 00 
    15.728000 1 22330600x Rx d 8 3e 0d 00 08 00 01 69 69 
    15.731000 1 22331903x Rx d 8 6b 26 0a 00 12 00 01 00 
    15.738000 1 22330700x Rx d 8 00 00 00 00 00 00 80 26 
    15.739000 1 22015000x Rx d 8 00 00 f1 e2 1c 08 00 72 
    15.739000 1 22025000x Rx d 8 62 33 00 f8 00 00 00 63 
    15.739000 1 22035000x Rx d 8 33 10 3d 10 d8 00 dd 00 
    15.741000 1 22332103x Rx d 8 00 00 42 00 20 02 04 02 
    15.745000 1 22015001x Rx d 8 f8 33 e9 e2 1c 08 00 72 
    15.745000 1 22025001x Rx d 8 62 33 00 f8 00 00 00 64 
    15.745000 1 22035001x Rx d 8 33 10 3b 10 d6 00 dc 00 
    15.749000 1 22330800x Rx d 8 00 00 00 00 fb 00 14 00 
    15.749000 1 22332100x Rx d 8 00 00 42 00 b4 01 04 02 
    15.751000 1 22332203x Rx d 8 16 00 0a 27 e7 26 02 00 
    15.774000 1 22332000x Rx d 8 00 00 00 00 00 00 00 00 
    15.781000 1 22013350x Rx d 8 0f 00 14 33 8e 33 00 2a 
    15.783000 1 22332303x Rx d 8 7e c1 00 00 8c 05 00 00 
    15.784000 1 22332b00x Rx d 8 00 00 2d 00 00 de 13 00 
    15.793000 1 22332403x Rx d 8 00 00 02 00 00 00 00 b8 
    15.803000 1 22332503x Rx d 8 02 03 00 00 00 00 1e 02 
    15.804000 1 22331500x Rx d 8 6f 26 d6 25 6e 26 33 00 
    15.814000 1 22331600x Rx d 8 14 00 bc 04 00 00 00 01 
    15.816000 1 22332102x Rx d 8 00 00 42 00 ca 00 04 02 
    15.824000 1 22331700x Rx d 8 00 3f 00 00 00 00 f7 07 
    15.825000 1 22332101x Rx d 8 00 00 42 00 ee 00 04 02 
    15.827000 1 22015002x Rx d 8 f8 33 04 e3 1c 08 00 82 
    15.834000 1 22332200x Rx d 8 6d f6 34 00 14 c1 00 00 
    15.844000 1 22015003x Rx d 8 ec 33 2d e3 1c 08 00 82 
    15.844000 1 22331900x Rx d 8 66 26 0a 00 02 00 01 00 
    15.845000 1 22015000x Rx d 8 f8 33 ef e2 1c 08 00 82 
    15.846000 1 22015001x Rx d 8 f8 33 f5 e2 1c 08 00 82 
    15.854000 1 22332100x Rx d 8 00 00 42 00 b4 01 04 02 
    15.855000 1 22330101x Rx d 8 00 74 00 00 52 03 00 00 
    15.863000 1 22332103x Rx d 8 00 00 42 00 20 02 04 02 
    15.864000 1 22332200x Rx d 8 15 00 06 27 8a 26 82 00 
    15.874000 1 22332300x Rx d 8 5a c6 00 00 8c 05 00 00 
    15.875000 1 22330301x Rx d 8 f8 33 f7 e2 e0 fc 00 02 
    15.884000 1 22332400x Rx d 8 00 00 02 00 00 00 00 92 
    15.885000 1 22330401x Rx d 8 33 10 3d 10 38 39 32 22 
    15.891000 1 22013350x Rx d 8 0f 00 14 33 8e 33 00 2b 
    15.894000 1 22332500x Rx d 8 02 03 00 00 00 00 1f 02 
    15.905000 1 22330601x Rx d 8 3e 0e 00 08 00 01 69 69 
    15.915000 1 22330701x Rx d 8 00 00 00 00 00 00 0c 27 
    15.916000 1 22332102x Rx d 8 00 00 42 00 ca 00 04 02 
    15.925000 1 22330801x Rx d 8 00 00 00 00 fb 00 f3 00 
    15.925000 1 22332101x Rx d 8 00 00 42 00 ee 00 04 02 
    15.927000 1 22015002x Rx d 8 f8 33 f5 e2 1c 08 00 92 
    15.944000 1 22015003x Rx d 8 ed 33 2d e3 1c 08 00 92 
    15.945000 1 22015000x Rx d 8 00 00 ed e2 1c 08 00 92 
    15.945000 1 22332001x Rx d 8 00 00 00 00 00 00 00 00 
    15.946000 1 22015001x Rx d 8 00 00 f9 e2 1c 08 00 92 
    15.954000 1 22332100x Rx d 8 00 00 42 00 b4 01 04 02 
    15.956000 1 22332b01x Rx d 8 00 00 03 00 00 07 01 00 
    15.963000 1 22332103x Rx d 8 00 00 42 00 20 02 04 02 
    15.976000 1 22331501x Rx d 8 5a 26 ba 25 71 26 33 00 
    15.986000 1 22331601x Rx d 8 03 00 d3 04 00 00 00 01 
    15.996000 1 22331701x Rx d 8 00 3f 00 00 01 00 f3 07 
    16.001000 1 22013350x Rx d 8 0f 00 14 33 8e 33 00 2c 
    16.006000 1 22332201x Rx d 8 7f de 01 00 62 de 00 00 
    16.016000 1 22331901x Rx d 8 52 26 08 00 12 00 01 00 
    16.016000 1 22330102x Rx d 8 00 74 00 00 7d 03 00 00 
    16.017000 1 22330302x Rx d 8 00 00 fd e2 e0 fc 00 02 
    16.017000 1 22330402x Rx d 8 33 10 3f 10 39 3a 0a 43 
    16.017000 1 22330602x Rx d 8 3e 0d 00 08 00 01 69 69 
    16.017000 1 22330702x Rx d 8 00 00 00 00 00 00 1f 26 
    16.022000 1 22330802x Rx d 8 00 00 00 00 fd 00 1c 00 
    16.022000 1 22332002x Rx d 8 00 00 00 00 00 00 00 00 
    16.022000 1 22332b02x Rx d 8 00 00 7e 05 00 7d 27 00 
    16.019000 1 22331502x Rx d 8 8c 26 f2 25 8d 26 33 00 
    16.019000 1 22331602x Rx d 8 4a 00 b1 04 00 00 02 01 
    16.019000 1 22331702x Rx d 8 00 3f 00 00 00 00 f7 07 
    16.019000 1 22332202x Rx d 8 f4 ec 2f 00 2a ee 00 00 
    16.020000 1 22331902x Rx d 8 7d 26 0c 00 10 00 01 00 
    16.020000 1 22332102x Rx d 8 00 00 42 00 ca 00 04 02 
    16.020000 1 22332202x Rx d 8 20 00 99 26 96 26 00 04 
    16.021000 1 22332302x Rx d 8 40 c5 00 00 8c 05 00 00 
    16.021000 1 22332402x Rx d 8 00 00 01 00 00 00 00 73 
    16.021000 1 22332502x Rx d 8 02 03 00 00 00 00 1f 02 
    16.026000 1 22332101x Rx d 8 00 00 42 00 ee 00 04 02 
    16.028000 1 22015002x Rx d 8 00 00 fd e2 1c 08 00 a2 
    16.036000 1 22332201x Rx d 8 00 00 10 27 0c 27 82 00 
    16.044000 1 22015003x Rx d 8 ed 33 1a e3 1c 08 00 a2 
    16.045000 1 22015000x Rx d 8 f8 33 f7 e2 1c 08 00 a2 
    16.046000 1 22332301x Rx d 8 e0 c4 00 00 f8 04 00 00 
    16.047000 1 22015001x Rx d 8 00 00 f1 e2 1c 08 00 a2 
    16.054000 1 22332100x Rx d 8 00 00 42 00 b4 01 04 02 
    16.056000 1 22332401x Rx d 8 00 00 02 00 00 00 1f 41 
    16.063000 1 22332103x Rx d 8 00 00 42 00 20 02 04 02 
    16.066000 1 22332501x Rx d 8 02 03 00 00 00 00 1e 02 
    16.421000 1 22013350x Rx d 8 0f 00 14 33 8e 33 00 2d 
    16.423000 1 22330303x Rx d 8 ed 33 20 e3 e0 fc 00 02 
    16.427000 1 22332102x Rx d 8 00 00 42 00 ca 00 04 02 
    16.126000 1 22332101x Rx d 8 00 00 42 00 ee 00 04 02 
    16.128000 1 22015002x Rx d 8 00 00 fd e2 1c 08 00 b2 
    16.143000 1 22330603x Rx d 8 3e 0d 00 08 00 01 69 69 
    16.144000 1 22015003x Rx d 8 ed 33 20 e3 1c 08 00 b2 
    16.145000 1 22015000x Rx d 8 f8 33 f5 e2 1c 08 00 b2 
    16.146000 1 22015001x Rx d 8 f8 33 f9 e2 1c 08 00 b2 
    16.154000 1 22332100x Rx d 8 00 00 42 00 b4 01 04 02 
    16.163000 1 22332103x Rx d 8 00 00 42 00 20 02 04 02 
    16.223000 1 22332003x Rx d 8 00 00 00 00 00 00 00 00 
    16.204000 1 22330300x Rx d 8 00 00 f7 e2 e0 fc 00 02 
    16.217000 1 22332102x Rx d 8 00 00 42 00 ca 00 04 02 
    16.221000 1 22013350x Rx d 8 0f 00 14 33 8e 33 00 2e 
    16.226000 1 22332101x Rx d 8 00 00 42 00 ee 00 04 02 
    16.228000 1 22015002x Rx d 8 f8 33 00 e3 1c 08 00 c2 
    16.234000 1 22330600x Rx d 8 3e 0d 00 08 00 01 69 69 
    16.244000 1 22015003x Rx d 8 ed 33 1e e3 1c 08 00 c2 
    16.245000 1 22015000x Rx d 8 f8 33 f9 e2 1c 08 00 c2 
    16.247000 1 22015001x Rx d 8 f8 33 f7 e2 1c 08 00 c2 
    16.254000 1 22332100x Rx d 8 00 00 42 00 b4 01 04 02 
    16.263000 1 22332103x Rx d 8 00 00 42 00 20 02 04 02 
    16.274000 1 22332000x Rx d 8 00 00 00 00 00 00 00 00 
    16.317000 1 22332102x Rx d 8 00 00 42 00 ca 00 04 02 
    16.326000 1 22332101x Rx d 8 00 00 42 00 ee 00 04 02 
    16.328000 1 22015002x Rx d 8 00 00 fd e2 1c 08 00 d2 
    16.339000 1 22013350x Rx d 8 0f 00 14 33 8e 33 00 2f 
    16.344000 1 22015003x Rx d 8 ed 33 22 e3 1c 08 00 d2 
    16.345000 1 22015000x Rx d 8 f8 33 fb e2 1c 08 00 d2 
    16.347000 1 22015001x Rx d 8 f8 33 f5 e2 1c 08 00 d2 
    16.354000 1 22332100x Rx d 8 00 00 42 00 b4 01 04 02 
    16.363000 1 22332103x Rx d 8 00 00 42 00 20 02 04 02 
    16.376000 1 22330301x Rx d 8 f8 33 f3 e2 e0 fc 00 02 
    16.406000 1 22330601x Rx d 8 3e 0e 00 08 00 01 69 69 
    16.417000 1 22332102x Rx d 8 00 00 42 00 ca 00 04 02 
    16.426000 1 22332101x Rx d 8 00 00 42 00 ee 00 04 02 
    16.428000 1 22015002x Rx d 8 f8 33 f9 e2 1c 08 00 e2 
    16.441000 1 22013350x Rx d 8 0f 00 14 33 8e 33 00 30 
    16.444000 1 22015003x Rx d 8 ed 33 1c e3 1c 08 00 e2 
    16.445000 1 22015000x Rx d 8 f8 33 f1 e2 1c 08 00 e2 
    16.446000 1 22332001x Rx d 8 00 00 00 00 00 00 00 00 
    16.447000 1 22015001x Rx d 8 00 00 eb e2 1c 08 00 e2 
    16.454000 1 22332100x Rx d 8 00 00 42 00 b4 01 04 02 
    16.463000 1 22332103x Rx d 8 00 00 42 00 20 02 04 02 
    16.517000 1 22330302x Rx d 8 00 00 f5 e2 e0 fc 00 02 
    16.517000 1 22330602x Rx d 8 3e 0d 00 08 00 01 69 69 
    16.522000 1 22332002x Rx d 8 00 00 00 00 00 00 00 00 
    16.522000 1 22332102x Rx d 8 00 00 42 00 ca 00 04 02 
    16.526000 1 22332101x Rx d 8 00 00 42 00 ee 00 04 02 
    16.528000 1 22015002x Rx d 8 00 00 f5 e2 1c 08 00 f2 
    16.544000 1 22015003x Rx d 8 ec 33 22 e3 1c 08 00 f2 
    16.545000 1 22015000x Rx d 8 f8 33 f3 e2 1c 08 00 f2 
    16.546000 1 22015001x Rx d 8 00 00 ed e2 1c 08 00 f2 
    16.551000 1 22013350x Rx d 8 0f 00 14 33 8e 33 00 31 
    16.554000 1 22332100x Rx d 8 00 00 42 00 b4 01 04 02 
    16.563000 1 22332103x Rx d 8 00 00 42 00 20 02 04 02 
    16.593000 1 22330103x Rx d 8 00 74 00 00 6b 03 00 00 
    16.613000 1 22330303x Rx d 8 ec 33 14 e3 e0 fc 00 02 
    16.617000 1 22332102x Rx d 8 00 00 42 00 ca 00 04 02 
    16.623000 1 22330403x Rx d 8 35 10 3f 10 39 39 0a 38 
    16.626000 1 22332101x Rx d 8 00 00 42 00 ee 00 04 02 
    16.628000 1 22015002x Rx d 8 f8 33 f9 e2 1c 08 00 02 
    16.643000 1 22330603x Rx d 8 3e 0d 00 08 00 01 69 69 
    16.644000 1 22015003x Rx d 8 ec 33 14 e3 1c 08 00 02 
    16.645000 1 22015000x Rx d 8 00 00 f1 e2 1c 08 00 02 
    16.647000 1 22015001x Rx d 8 f8 33 eb e2 1c 08 00 02 
    16.653000 1 22330703x Rx d 8 00 00 00 00 00 00 e1 26 
    16.654000 1 22332100x Rx d 8 00 00 42 00 b4 01 04 02 
    16.661000 1 22013350x Rx d 8 0f 00 14 33 8e 33 00 32 
    16.663000 1 22330803x Rx d 8 00 00 00 00 f4 00 37 01 
    16.663000 1 22332103x Rx d 8 00 00 42 00 20 02 04 02 
    16.684000 1 22330100x Rx d 8 00 74 00 00 66 03 00 00 
    16.691000 1 22332003x Rx d 8 00 00 00 00 00 00 00 00 
    16.701000 1 22332b03x Rx d 8 00 00 0e 00 00 4c 01 00 
    16.704000 1 22330300x Rx d 8 00 00 f3 e2 e0 fc 00 02 
    16.714000 1 22330400x Rx d 8 33 10 3d 10 39 39 09 40 
    16.717000 1 22332102x Rx d 8 00 00 42 00 ca 00 04 02 
    16.721000 1 22331503x Rx d 8 73 26 ba 25 7b 26 33 00 
    16.726000 1 22332101x Rx d 8 00 00 42 00 ee 00 04 02 
    16.728000 1 22015002x Rx d 8 00 00 f3 e2 1c 08 00 12 
    16.728000 1 22025002x Rx d 8 63 33 00 f8 00 00 00 62 
    16.728000 1 22035002x Rx d 8 33 10 3d 10 dc 00 e6 00 
    16.731000 1 22331603x Rx d 8 0a 00 c2 04 08 00 00 01 
    16.734000 1 22330600x Rx d 8 3e 0d 00 08 00 01 69 69 
    16.741000 1 22331703x Rx d 8 00 3f 00 00 00 00 f5 07 
    16.744000 1 22330700x Rx d 8 00 00 00 00 00 00 80 26 
    16.745000 1 22015000x Rx d 8 00 00 ed e2 1c 08 00 12 
    16.745000 1 22025000x Rx d 8 62 33 00 f8 00 00 00 63 
    16.745000 1 22035000x Rx d 8 33 10 3f 10 d8 00 dd 00 
    16.747000 1 22015001x Rx d 8 f8 33 ef e2 1c 08 00 12 
    16.747000 1 22025001x Rx d 8 62 33 00 f8 00 00 00 64 
    16.747000 1 22035001x Rx d 8 33 10 3b 10 d6 00 dc 00 
    16.751000 1 22332203x Rx d 8 05 74 10 00 98 23 01 00 
    16.752000 1 22015003x Rx d 8 ed 33 14 e3 1c 08 00 12 
    16.752000 1 22025003x Rx d 8 62 33 00 f0 00 00 00 64 
    16.752000 1 22035003x Rx d 8 35 10 3f 10 d8 00 df 00 
    16.755000 1 22330800x Rx d 8 00 00 00 00 fb 00 14 00 
    16.755000 1 22332100x Rx d 8 00 00 42 00 b4 01 04 02 
    16.762000 1 22331903x Rx d 8 6b 26 0a 00 12 00 01 00 
    16.771000 1 22013350x Rx d 8 0f 00 14 33 8e 33 00 33 
    16.772000 1 22332103x Rx d 8 00 00 42 00 20 02 04 02 
    16.775000 1 22332000x Rx d 8 00 00 00 00 00 00 00 00 
    16.782000 1 22332203x Rx d 8 16 00 0a 27 e7 26 02 00 
    16.785000 1 22332b00x Rx d 8 00 00 2d 00 00 de 13 00 
    16.792000 1 22332303x Rx d 8 7f c1 00 00 8c 05 00 00 
    16.802000 1 22332403x Rx d 8 00 00 02 00 00 00 00 00 
    16.805000 1 22331500x Rx d 8 6e 26 f2 25 6e 26 33 00 
    16.812000 1 22332503x Rx d 8 02 03 00 00 00 00 1e 02 
    16.815000 1 22331600x Rx d 8 1e 00 bc 04 00 00 00 01 
    16.822000 1 22332102x Rx d 8 00 00 42 00 ca 00 04 02 
    16.825000 1 22331700x Rx d 8 00 3f 00 00 00 00 f7 07 
    16.827000 1 22332101x Rx d 8 00 00 42 00 ee 00 04 02 
    16.829000 1 22015002x Rx d 8 00 00 fb e2 1c 08 00 22 
    16.835000 1 22332200x Rx d 8 6e f6 34 00 fd c4 00 00 
    16.845000 1 22331900x Rx d 8 66 26 0a 00 02 00 01 00 
    16.846000 1 22015000x Rx d 8 00 00 ed e2 1c 08 00 22 
    16.847000 1 22015001x Rx d 8 f8 33 eb e2 1c 08 00 22 
    16.853000 1 22015003x Rx d 8 ed 33 12 e3 1c 08 00 22 
    16.855000 1 22332100x Rx d 8 00 00 42 00 b4 01 04 02 
    16.857000 1 22330101x Rx d 8 00 74 00 00 52 03 00 00 
    16.865000 1 22332200x Rx d 8 15 00 06 27 8a 26 82 00 
    16.872000 1 22332103x Rx d 8 00 00 42 00 20 02 04 02 
    16.875000 1 22332300x Rx d 8 5b c6 00 00 8c 05 00 00 
    16.877000 1 22330301x Rx d 8 f8 33 eb e2 e0 fc 00 02 
    16.881000 1 22013350x Rx d 8 0f 00 14 33 8e 33 00 34 
    16.885000 1 22332400x Rx d 8 00 00 02 00 00 00 00 e4 
    16.887000 1 22330401x Rx d 8 33 10 3b 10 38 39 0a 48 
    16.895000 1 22332500x Rx d 8 02 03 00 00 00 00 1e 02 
    16.907000 1 22330601x Rx d 8 3e 0e 00 08 00 01 69 69 
    16.917000 1 22330701x Rx d 8 00 00 00 00 00 00 0c 27 
    16.922000 1 22332102x Rx d 8 00 00 42 00 ca 00 04 02 
    16.927000 1 22330801x Rx d 8 00 00 00 00 fb 00 f3 00 
    16.927000 1 22332101x Rx d 8 00 00 42 00 ee 00 04 02 
    16.929000 1 22015002x Rx d 8 f8 33 f9 e2 1c 08 00 32 
    16.946000 1 22015000x Rx d 8 f8 33 ef e2 1c 08 00 32 
    16.947000 1 22332001x Rx d 8 00 00 00 00 00 00 00 00 
    16.948000 1 22015001x Rx d 8 f8 33 eb e2 1c 08 00 32 
    16.953000 1 22015003x Rx d 8 ed 33 16 e3 1c 08 00 32 
    16.955000 1 22332100x Rx d 8 00 00 42 00 b4 01 04 02 
    16.957000 1 22332b01x Rx d 8 00 00 03 00 00 07 01 00 
    16.972000 1 22332103x Rx d 8 00 00 42 00 20 02 04 02 
    16.977000 1 22331501x Rx d 8 59 26 66 25 71 26 33 00 
    16.987000 1 22331601x Rx d 8 0d 00 d4 04 00 00 00 01 
    16.991000 1 22013350x Rx d 8 0f 00 14 33 8e 33 00 35 
    16.997000 1 22331701x Rx d 8 00 3f 00 00 01 00 f3 07 
    17.007000 1 22332201x Rx d 8 7f de 01 00 4b e2 00 00 
    17.017000 1 22331901x Rx d 8 52 26 08 00 12 00 01 00 
    17.022000 1 22330102x Rx d 8 00 74 00 00 7d 03 00 00 
    17.022000 1 22330302x Rx d 8 00 00 f7 e2 e0 fc 00 02 
    17.019000 1 22330402x Rx d 8 33 10 3f 10 39 3a 0a 43 
    17.019000 1 22330602x Rx d 8 3e 0d 00 08 00 01 69 69 
    17.019000 1 22330702x Rx d 8 00 00 00 00 00 00 1f 26 
    17.020000 1 22330802x Rx d 8 00 00 00 00 fd 00 1c 00 
    17.020000 1 22330902x Rx d 8 40 01 7e 01 00 6c 01 00 
    17.020000 1 22332002x Rx d 8 00 00 00 00 00 00 00 00 
    17.020000 1 22332b02x Rx d 8 00 00 7e 05 00 7d 27 00 
    17.021000 1 22331502x Rx d 8 8c 26 f2 25 8d 26 33 00 
    17.021000 1 22331602x Rx d 8 54 00 b1 04 00 00 02 01 
    17.021000 1 22331702x Rx d 8 00 3f 00 00 00 00 f7 07 
    17.022000 1 22332202x Rx d 8 f5 ec 2f 00 14 f2 00 00 
    17.022000 1 22331902x Rx d 8 7d 26 0c 00 10 00 01 00 
    17.022000 1 22332102x Rx d 8 00 00 42 00 ca 00 04 02 
    17.022000 1 22332202x Rx d 8 20 00 99 26 96 26 00 04 
    17.023000 1 22332302x Rx d 8 41 c5 00 00 8c 05 00 00 
    17.023000 1 22332402x Rx d 8 00 00 01 00 00 00 00 b9 
    17.023000 1 22332502x Rx d 8 02 03 00 00 00 00 1f 02 
    17.027000 1 22332101x Rx d 8 00 00 42 00 ee 00 04 02 
    17.030000 1 22015002x Rx d 8 00 00 f7 e2 1c 08 00 42 
    17.037000 1 22332201x Rx d 8 00 00 10 27 0c 27 82 00 
    17.046000 1 22015000x Rx d 8 f8 33 ef e2 1c 08 00 42 
    17.047000 1 22332301x Rx d 8 e1 c4 00 00 f8 04 00 00 
    17.048000 1 22015001x Rx d 8 f8 33 ed e2 1c 08 00 42 
    17.053000 1 22015003x Rx d 8 ed 33 1c e3 1c 08 00 42 
    17.055000 1 22332100x Rx d 8 00 00 42 00 b4 01 04 02 
    17.057000 1 22332401x Rx d 8 00 00 02 00 00 00 1f 69 
    17.067000 1 22332501x Rx d 8 02 03 00 00 00 00 1e 02 
    17.072000 1 22332103x Rx d 8 00 00 42 00 20 02 04 02 
    17.101000 1 22013350x Rx d 8 0f 00 14 33 8e 33 00 36 
    17.429000 1 22332102x Rx d 8 00 00 42 00 ca 00 04 02 
    17.122000 1 22330303x Rx d 8 ed 33 20 e3 e0 fc 00 02 
    17.127000 1 22332101x Rx d 8 00 00 42 00 ee 00 04 02 
    17.130000 1 22015002x Rx d 8 f8 33 f5 e2 1c 08 00 52 
    17.146000 1 22015000x Rx d 8 00 00 ef e2 1c 08 00 52 
    17.148000 1 22015001x Rx d 8 f8 33 ed e2 1c 08 00 52 
    17.152000 1 22330603x Rx d 8 3e 0d 00 08 00 01 69 69 
    17.153000 1 22015003x Rx d 8 ed 33 20 e3 1c 08 00 52 
    17.155000 1 22332100x Rx d 8 00 00 42 00 b4 01 04 02 
    17.172000 1 22332103x Rx d 8 00 00 42 00 20 02 04 02 
    17.192000 1 22332003x Rx d 8 00 00 00 00 00 00 00 00 
    17.205000 1 22330300x Rx d 8 00 00 f1 e2 e0 fc 00 02 
    17.242000 1 22013350x Rx d 8 0f 00 14 33 8e 33 00 37 
    17.219000 1 22332102x Rx d 8 00 00 42 00 ca 00 04 02 
    17.227000 1 22332101x Rx d 8 00 00 42 00 ee 00 04 02 
    17.230000 1 22015002x Rx d 8 00 00 f9 e2 1c 08 00 62 
    17.235000 1 22330600x Rx d 8 3e 0d 00 08 00 01 69 69 
    17.246000 1 22015000x Rx d 8 00 00 ef e2 1c 08 00 62 
    17.248000 1 22015001x Rx d 8 f8 33 e9 e2 1c 08 00 62 
    17.253000 1 22015003x Rx d 8 ed 33 1c e3 1c 08 00 62 
    17.255000 1 22332100x Rx d 8 00 00 42 00 b4 01 04 02 
    17.272000 1 22332103x Rx d 8 00 00 42 00 20 02 04 02 
    17.275000 1 22332000x Rx d 8 00 00 00 00 00 00 00 00 
    17.319000 1 22332102x Rx d 8 00 00 42 00 ca 00 04 02 
    17.321000 1 22013350x Rx d 8 0f 00 14 33 8e 33 00 38 
    17.327000 1 22332101x Rx d 8 00 00 42 00 ee 00 04 02 
    17.330000 1 22015002x Rx d 8 f8 33 f7 e2 1c 08 00 72 
    17.346000 1 22015000x Rx d 8 00 00 ef e2 1c 08 00 72 
    17.348000 1 22015001x Rx d 8 f8 33 e9 e2 1c 08 00 72 
    17.353000 1 22015003x Rx d 8 ec 33 1a e3 1c 08 00 72 
    17.355000 1 22332100x Rx d 8 00 00 42 00 b4 01 04 02 
    17.372000 1 22332103x Rx d 8 00 00 42 00 20 02 04 02 
    17.377000 1 22330301x Rx d 8 f8 33 e9 e2 e0 fc 00 02 
    17.407000 1 22330601x Rx d 8 3e 0e 00 08 00 01 69 69 
    17.419000 1 22332102x Rx d 8 00 00 42 00 ca 00 04 02 
    17.427000 1 22332101x Rx d 8 00 00 42 00 ee 00 04 02 
    17.430000 1 22015002x Rx d 8 00 00 f9 e2 1c 08 00 82 
    17.439000 1 22013350x Rx d 8 0f 00 14 33 8e 33 00 39 
    17.446000 1 22015000x Rx d 8 00 00 eb e2 1c 08 00 82 
    17.447000 1 22332001x Rx d 8 00 00 00 00 00 00 00 00 
    17.448000 1 22015001x Rx d 8 f8 33 ef e2 1c 08 00 82 
    17.453000 1 22015003x Rx d 8 ed 33 22 e3 1c 08 00 82 
    17.455000 1 22332100x Rx d 8 00 00 42 00 b4 01 04 02 
    17.472000 1 22332103x Rx d 8 00 00 42 00 20 02 04 02 
    17.519000 1 22330302x Rx d 8 00 00 f9 e2 e0 fc 00 02 
    17.519000 1 22330602x Rx d 8 3e 0d 00 08 00 01 69 69 
    17.520000 1 22332002x Rx d 8 00 00 00 00 00 00 00 00 
    17.520000 1 22332102x Rx d 8 00 00 42 00 ca 00 04 02 
    17.527000 1 22332101x Rx d 8 00 00 42 00 ee 00 04 02 
    17.530000 1 22015002x Rx d 8 00 00 f9 e2 1c 08 00 92 
    17.541000 1 22013350x Rx d 8 0f 00 14 33 8e 33 00 3a 
    17.546000 1 22015000x Rx d 8 00 00 eb e2 1c 08 00 92 
    17.547000 1 22015001x Rx d 8 f8 33 ed e2 1c 08 00 92 
    17.553000 1 22015003x Rx d 8 ec 33 12 e3 1c 08 00 92 
    17.555000 1 22332100x Rx d 8 00 00 42 00 b4 01 04 02 
    17.572000 1 22332103x Rx d 8 00 00 42 00 20 02 04 02 
    17.602000 1 22330103x Rx d 8 00 74 00 00 6b 03 00 00 
    17.619000 1 22332102x Rx d 8 00 00 42 00 ca 00 04 02 
    17.622000 1 22330303x Rx d 8 ec 33 12 e3 e0 fc 00 02 
    17.627000 1 22332101x Rx d 8 00 00 42 00 ee 00 04 02 
    17.630000 1 22015002x Rx d 8 00 00 fb e2 1c 08 00 a2 
    17.632000 1 22330403x Rx d 8 33 10 41 10 38 39 0a 38 
    17.646000 1 22015000x Rx d 8 00 00 f3 e2 1c 08 00 a2 
    17.651000 1 22013350x Rx d 8 0f 00 14 33 8e 33 00 3b 
    17.652000 1 22330603x Rx d 8 3e 0d 00 08 00 01 69 69 
    17.653000 1 22015001x Rx d 8 f8 33 eb e2 1c 08 00 a2 
    17.653000 1 22015003x Rx d 8 ec 33 12 e3 1c 08 00 a2 
    17.655000 1 22332100x Rx d 8 00 00 42 00 b4 01 04 02 
    17.662000 1 22330703x Rx d 8 00 00 00 00 00 00 e1 26 
    17.672000 1 22330803x Rx d 8 00 00 00 00 f4 00 37 01 
    17.672000 1 22332103x Rx d 8 00 00 42 00 20 02 04 02 
    17.685000 1 22330100x Rx d 8 00 74 00 00 66 03 00 00 
    17.692000 1 22332003x Rx d 8 00 00 00 00 00 00 00 00 
    17.702000 1 22332b03x Rx d 8 00 00 0e 00 00 4c 01 00 
    17.706000 1 22330300x Rx d 8 f8 33 f1 e2 e0 fc 00 02 
    17.716000 1 22330400x Rx d 8 33 10 3d 10 39 39 0a 40 
    17.719000 1 22332102x Rx d 8 00 00 42 00 ca 00 04 02 
    17.722000 1 22331503x Rx d 8 72 26 9e 25 7b 26 33 00 
    17.726000 1 22330500x Rx d 8 32 30 36 30 30 32 32 33 
    17.730000 1 22015002x Rx d 8 f8 33 f5 e2 1c 08 00 b2 
    17.730000 1 22025002x Rx d 8 63 33 00 f8 00 00 00 62 
    17.730000 1 22035002x Rx d 8 33 10 3f 10 dc 00 e6 00 
    17.732000 1 22332101x Rx d 8 00 00 42 00 ee 00 04 02 
    17.732000 1 22331603x Rx d 8 14 00 c1 04 07 00 00 01 
    17.736000 1 22330600x Rx d 8 3e 0d 00 08 00 01 69 69 
    17.742000 1 22331703x Rx d 8 00 3f 00 00 00 00 f5 07 
    17.746000 1 22330700x Rx d 8 00 00 00 00 00 00 80 26 
    17.747000 1 22015000x Rx d 8 00 00 ef e2 1c 08 00 b2 
    17.747000 1 22025000x Rx d 8 62 33 00 f8 00 00 00 63 
    17.747000 1 22035000x Rx d 8 33 10 3d 10 d8 00 dd 00 
    17.752000 1 22332203x Rx d 8 05 74 10 00 81 27 01 00 
    17.753000 1 22015001x Rx d 8 f8 33 f5 e2 1c 08 00 b2 
    17.753000 1 22015003x Rx d 8 ed 33 12 e3 1c 08 00 b2 
    17.753000 1 22025001x Rx d 8 62 33 00 f8 00 00 00 64 
    17.753000 1 22025003x Rx d 8 62 33 00 f0 00 00 00 64 
    17.754000 1 22035001x Rx d 8 33 10 3b 10 d6 00 dc 00 
    17.754000 1 22035003x Rx d 8 33 10 3f 10 d7 00 e0 00 
    17.757000 1 22330800x Rx d 8 00 00 00 00 fb 00 14 00 
    17.757000 1 22332100x Rx d 8 00 00 42 00 b4 01 04 02 
    17.761000 1 22013350x Rx d 8 0f 00 14 33 8e 33 00 3c 
    17.763000 1 22331903x Rx d 8 6b 26 0c 00 12 00 01 00 
    17.767000 1 22330900x Rx d 8 3c 00 0a 02 00 1f 02 00 
    17.773000 1 22332103x Rx d 8 00 00 42 00 20 02 04 02 
    17.777000 1 22332000x Rx d 8 00 00 00 00 00 00 00 00 
    17.783000 1 22332203x Rx d 8 16 00 0a 27 e7 26 02 00 
    17.787000 1 22332b00x Rx d 8 00 00 2d 00 00 de 13 00 
    17.793000 1 22332303x Rx d 8 80 c1 00 00 8c 05 00 00 
    17.803000 1 22332403x Rx d 8 00 00 02 00 00 00 00 39 
    17.807000 1 22331500x Rx d 8 6e 26 d6 25 6e 26 33 00 
    17.813000 1 22332503x Rx d 8 02 03 00 00 00 00 1e 02 
    17.817000 1 22331600x Rx d 8 28 00 bc 04 00 00 00 01 
    17.819000 1 22332102x Rx d 8 00 00 42 00 ca 00 04 02 
    17.827000 1 22331700x Rx d 8 00 3f 00 00 00 00 f7 07 
    17.830000 1 22015002x Rx d 8 f8 33 f9 e2 1c 08 00 c2 
    17.832000 1 22332101x Rx d 8 00 00 42 00 ee 00 04 02 
    17.837000 1 22332200x Rx d 8 6e f6 34 00 e7 c8 00 00 
    17.847000 1 22331900x Rx d 8 66 26 0a 00 02 00 01 00 
    17.848000 1 22015000x Rx d 8 00 00 ed e2 1c 08 00 c2 
    17.853000 1 22015001x Rx d 8 f8 33 f7 e2 1c 08 00 c2 
    17.853000 1 22015003x Rx d 8 ed 33 16 e3 1c 08 00 c2 
    17.857000 1 22332100x Rx d 8 00 00 42 00 b4 01 04 02 
    17.862000 1 22330101x Rx d 8 00 74 00 00 52 03 00 00 
    17.867000 1 22332200x Rx d 8 15 00 06 27 8a 26 82 00 
    17.871000 1 22013350x Rx d 8 0f 00 14 33 8e 33 00 3d 
    17.873000 1 22332103x Rx d 8 00 00 42 00 20 02 04 02 
    17.877000 1 22332300x Rx d 8 5c c6 00 00 8c 05 00 00 
    17.883000 1 22330301x Rx d 8 f8 33 f7 e2 e0 fc 00 02 
    17.887000 1 22332400x Rx d 8 00 00 02 00 00 00 00 01 
    17.893000 1 22330401x Rx d 8 33 10 3b 10 38 39 0a 33 
    17.897000 1 22332500x Rx d 8 02 03 00 00 00 00 1e 02 
    17.913000 1 22330601x Rx d 8 3e 0e 00 08 00 01 69 69 
    17.919000 1 22332102x Rx d 8 00 00 42 00 ca 00 04 02 
    17.923000 1 22330701x Rx d 8 00 00 00 00 00 00 0c 27 
    17.930000 1 22015002x Rx d 8 00 00 f9 e2 1c 08 00 d2 
    17.933000 1 22330801x Rx d 8 00 00 00 00 fb 00 f3 00 
    17.933000 1 22332101x Rx d 8 00 00 42 00 ee 00 04 02 
    17.948000 1 22015000x Rx d 8 00 00 ef e2 1c 08 00 d2 
    17.954000 1 22015003x Rx d 8 ec 33 1c e3 1c 08 00 d2 
    17.954000 1 22332001x Rx d 8 00 00 00 00 00 00 00 00 
    17.955000 1 22015001x Rx d 8 f8 33 ef e2 1c 08 00 d2 
    17.957000 1 22332100x Rx d 8 00 00 42 00 b4 01 04 02 
    17.964000 1 22332b01x Rx d 8 00 00 03 00 00 07 01 00 
    17.973000 1 22332103x Rx d 8 00 00 42 00 20 02 04 02 
    17.981000 1 22013350x Rx d 8 0f 00 14 33 8e 33 00 3e 
    17.984000 1 22331501x Rx d 8 58 26 66 25 71 26 33 00 
    17.994000 1 22331601x Rx d 8 17 00 d3 04 00 00 00 01 
    18.004000 1 22331701x Rx d 8 00 3f 00 00 01 00 f3 07 
    18.014000 1 22332201x Rx d 8 7f de 01 00 3a e6 00 00 
    18.019000 1 22330102x Rx d 8 00 74 00 00 7d 03 00 00 
    18.020000 1 22330302x Rx d 8 00 00 fb e2 e0 fc 00 02 
    18.020000 1 22330402x Rx d 8 33 10 3d 10 39 3a 0a 40 
    18.020000 1 22330602x Rx d 8 3e 0d 00 08 00 01 69 69 
    18.020000 1 22330702x Rx d 8 00 00 00 00 00 00 1f 26 
    18.021000 1 22330802x Rx d 8 00 00 00 00 fd 00 1c 00 
    18.021000 1 22332002x Rx d 8 00 00 00 00 00 00 00 00 
    18.021000 1 22332b02x Rx d 8 00 00 7e 05 00 7d 27 00 
    18.022000 1 22331502x Rx d 8 8b 26 f2 25 8d 26 33 00 
    18.022000 1 22331602x Rx d 8 5e 00 b1 04 00 00 02 01 
    18.022000 1 22331702x Rx d 8 00 3f 00 00 00 00 f7 07 
    18.022000 1 22332202x Rx d 8 f6 ec 2f 00 fd f5 00 00 
    18.023000 1 22331902x Rx d 8 7d 26 0a 00 10 00 01 00 
    18.023000 1 22332102x Rx d 8 00 00 42 00 ca 00 04 02 
    18.023000 1 22332202x Rx d 8 20 00 99 26 96 26 00 04 
    18.024000 1 22332302x Rx d 8 42 c5 00 00 8c 05 00 00 
    18.024000 1 22331901x Rx d 8 52 26 08 00 12 00 01 00 
    18.024000 1 22332402x Rx d 8 00 00 01 00 00 00 00 d5 
    18.024000 1 22332502x Rx d 8 02 03 00 00 00 00 1f 02 
    18.031000 1 22015002x Rx d 8 00 00 fb e2 1c 08 00 e2 
    18.034000 1 22332101x Rx d 8 00 00 42 00 ee 00 04 02 
    18.044000 1 22332201x Rx d 8 00 00 10 27 0c 27 82 00 
    18.048000 1 22015000x Rx d 8 f8 33 f1 e2 1c 08 00 e2 
    18.054000 1 22015003x Rx d 8 ec 33 1c e3 1c 08 00 e2 
    18.054000 1 22332301x Rx d 8 e2 c4 00 00 f8 04 00 00 
    18.055000 1 22015001x Rx d 8 00 00 f5 e2 1c 08 00 e2 
    18.057000 1 22332100x Rx d 8 00 00 42 00 b4 01 04 02 
    18.064000 1 22332401x Rx d 8 00 00 02 00 00 00 1f 92 
    18.073000 1 22332103x Rx d 8 00 00 42 00 20 02 04 02 
    18.074000 1 22332501x Rx d 8 02 03 00 00 00 00 1e 02 
    18.091000 1 22013350x Rx d 8 0f 00 14 33 8e 33 00 3f 
    18.120000 1 22332102x Rx d 8 00 00 42 00 ca 00 04 02 
    18.123000 1 22330303x Rx d 8 ed 33 22 e3 e0 fc 00 02 
    18.131000 1 22015002x Rx d 8 00 00 fd e2 1c 08 00 f2 
    18.134000 1 22332101x Rx d 8 00 00 42 00 ee 00 04 02 
    18.148000 1 22015000x Rx d 8 00 00 e9 e2 1c 08 00 f2 
    18.153000 1 22330603x Rx d 8 3e 0d 00 08 00 01 69 69 
    18.154000 1 22015003x Rx d 8 ed 33 16 e3 1c 08 00 f2 
    18.155000 1 22015001x Rx d 8 00 00 f9 e2 1c 08 00 f2 
    18.157000 1 22332100x Rx d 8 00 00 42 00 b4 01 04 02 
    18.174000 1 22332103x Rx d 8 00 00 42 00 20 02 04 02 
    18.194000 1 22332003x Rx d 8 00 00 00 00 00 00 00 00 
    18.201000 1 22013350x Rx d 8 0f 00 14 33 8e 33 00 40 
    18.207000 1 22330300x Rx d 8 f8 33 ed e2 e0 fc 00 02 
    18.220000 1 22332102x Rx d 8 00 00 42 00 ca 00 04 02 
    18.231000 1 22015002x Rx d 8 00 00 fb e2 1c 08 00 02 
    18.234000 1 22332101x Rx d 8 00 00 42 00 ee 00 04 02 
    18.237000 1 22330600x Rx d 8 3e 0d 00 08 00 01 69 69 
    18.248000 1 22015000x Rx d 8 f8 33 eb e2 1c 08 00 02 
    18.254000 1 22015001x Rx d 8 f8 33 f5 e2 1c 08 00 02 
    18.255000 1 22015003x Rx d 8 ed 33 1c e3 1c 08 00 02 
    18.257000 1 22332100x Rx d 8 00 00 42 00 b4 01 04 02 
    18.274000 1 22332103x Rx d 8 00 00 42 00 20 02 04 02 
    18.277000 1 22332000x Rx d 8 00 00 00 00 00 00 00 00 
    18.342000 1 22013350x Rx d 8 0f 00 14 33 8e 33 00 41 
    18.320000 1 22332102x Rx d 8 00 00 42 00 ca 00 04 02 
    18.331000 1 22015002x Rx d 8 f8 33 f3 e2 1c 08 00 12 
    18.334000 1 22332101x Rx d 8 00 00 42 00 ee 00 04 02 
    18.348000 1 22015000x Rx d 8 00 00 ef e2 1c 08 00 12 
    18.355000 1 22015001x Rx d 8 f8 33 eb e2 1c 08 00 12 
    18.355000 1 22015003x Rx d 8 ed 33 1e e3 1c 08 00 12 
    18.357000 1 22332100x Rx d 8 00 00 42 00 b4 01 04 02 
    18.374000 1 22332103x Rx d 8 00 00 42 00 20 02 04 02 
    18.384000 1 22330301x Rx d 8 f8 33 eb e2 e0 fc 00 02 
    18.414000 1 22330601x Rx d 8 3e 0e 00 08 00 01 69 69 
    18.420000 1 22332102x Rx d 8 00 00 42 00 ca 00 04 02 
    18.421000 1 22013350x Rx d 8 0f 00 14 33 8e 33 00 42 
    18.431000 1 22015002x Rx d 8 00 00 f1 e2 1c 08 00 22 
    18.434000 1 22332101x Rx d 8 00 00 42 00 ee 00 04 02 
    18.448000 1 22015000x Rx d 8 00 00 f1 e2 1c 08 00 22 
    18.454000 1 22332001x Rx d 8 00 00 00 00 00 00 00 00 
    18.455000 1 22015003x Rx d 8 ed 33 1a e3 1c 08 00 22 
    18.455000 1 22015001x Rx d 8 f8 33 e9 e2 1c 08 00 22 
    18.457000 1 22332100x Rx d 8 00 00 42 00 b4 01 04 02 
    18.474000 1 22332103x Rx d 8 00 00 42 00 20 02 04 02 
    18.520000 1 22330302x Rx d 8 00 00 f9 e2 e0 fc 00 02 
    18.520000 1 22330602x Rx d 8 3e 0d 00 08 00 01 69 69 
    18.521000 1 22332002x Rx d 8 00 00 00 00 00 00 00 00 
    18.521000 1 22332102x Rx d 8 00 00 42 00 ca 00 04 02 
    18.532000 1 22015002x Rx d 8 00 00 f9 e2 1c 08 00 32 
    18.534000 1 22332101x Rx d 8 00 00 42 00 ee 00 04 02 
    18.539000 1 22013350x Rx d 8 0f 00 14 33 8e 33 00 43 
    18.548000 1 22015000x Rx d 8 00 00 f1 e2 1c 08 00 32 
    18.554000 1 22015001x Rx d 8 f8 33 e5 e2 1c 08 00 32 
    18.555000 1 22015003x Rx d 8 ed 33 14 e3 1c 08 00 32 
    18.557000 1 22332100x Rx d 8 00 00 42 00 b4 01 04 02 
    18.574000 1 22332103x Rx d 8 00 00 42 00 20 02 04 02 
    18.604000 1 22330103x Rx d 8 00 74 00 00 6b 03 00 00 
    18.621000 1 22332102x Rx d 8 00 00 42 00 ca 00 04 02 
    18.624000 1 22330303x Rx d 8 ed 33 16 e3 e0 fc 00 02 
    18.632000 1 22015002x Rx d 8 00 00 f5 e2 1c 08 00 42 
    18.634000 1 22332101x Rx d 8 00 00 42 00 ee 00 04 02 
    18.634000 1 22330403x Rx d 8 35 10 3f 10 39 39 0a 38 
    18.641000 1 22013350x Rx d 8 0f 00 14 33 8e 33 00 44 
    18.648000 1 22015000x Rx d 8 00 00 ed e2 1c 08 00 42 
    18.654000 1 22330603x Rx d 8 3e 0d 00 08 00 01 69 69 
    18.654000 1 22015001x Rx d 8 f8 33 e5 e2 1c 08 00 42 
    18.655000 1 22015003x Rx d 8 ed 33 0c e3 1c 08 00 42 
    18.657000 1 22332100x Rx d 8 00 00 42 00 b4 01 04 02 
    18.664000 1 22330703x Rx d 8 00 00 00 00 00 00 e1 26 
    18.674000 1 22330803x Rx d 8 00 00 00 00 f4 00 37 01 
    18.674000 1 22332103x Rx d 8 00 00 42 00 20 02 04 02 
    18.684000 1 22330903x Rx d 8 38 00 a1 00 00 b0 00 00 
    18.687000 1 22330100x Rx d 8 00 74 00 00 66 03 00 00 
    18.694000 1 22332003x Rx d 8 00 00 00 00 00 00 00 00 
    18.704000 1 22332b03x Rx d 8 00 00 0e 00 00 4c 01 00 
    18.707000 1 22330300x Rx d 8 00 00 ed e2 e0 fc 00 02 
    18.717000 1 22330400x Rx d 8 33 10 3d 10 39 39 0a 40 
    18.724000 1 22331503x Rx d 8 72 26 ba 25 7b 26 33 00 
    18.734000 1 22332101x Rx d 8 00 00 42 00 ee 00 04 02 
    18.734000 1 22331603x Rx d 8 1e 00 c1 04 07 00 00 01 
    18.737000 1 22330600x Rx d 8 3e 0d 00 08 00 01 69 69 
    18.744000 1 22331703x Rx d 8 00 3f 00 00 00 00 f5 07 
    18.746000 1 22332102x Rx d 8 00 00 42 00 ca 00 04 02 
    18.747000 1 22330700x Rx d 8 00 00 00 00 00 00 80 26 
    18.748000 1 22015000x Rx d 8 00 00 eb e2 1c 08 00 52 
    18.748000 1 22025000x Rx d 8 62 33 00 f8 00 00 00 63 
    18.748000 1 22035000x Rx d 8 33 10 3d 10 d8 00 dc 00 
    18.751000 1 22013350x Rx d 8 0f 00 14 33 8e 33 00 45 
    18.754000 1 22332203x Rx d 8 05 74 10 00 6b 2b 01 00 
    18.754000 1 22015001x Rx d 8 f8 33 e7 e2 1c 08 00 52 
    18.755000 1 22015003x Rx d 8 ed 33 14 e3 1c 08 00 52 
    18.755000 1 22025001x Rx d 8 62 33 00 f8 00 00 00 64 
    18.755000 1 22025003x Rx d 8 62 33 00 f0 00 00 00 64 
    18.756000 1 22035001x Rx d 8 33 10 3b 10 d6 00 dc 00 
    18.756000 1 22035003x Rx d 8 35 10 3d 10 d9 00 e0 00 
    18.757000 1 22015002x Rx d 8 00 00 00 e3 1c 08 00 52 
    18.757000 1 22025002x Rx d 8 63 33 00 f8 00 00 00 62 
    18.757000 1 22035002x Rx d 8 33 10 43 10 dc 00 e6 00 
    18.758000 1 22330800x Rx d 8 00 00 00 00 fb 00 14 00 
    18.758000 1 22332100x Rx d 8 00 00 42 00 b4 01 04 02 
    18.764000 1 22331903x Rx d 8 6b 26 08 00 12 00 01 00 
    18.774000 1 22332103x Rx d 8 00 00 42 00 20 02 04 02 
    18.778000 1 22332000x Rx d 8 00 00 00 00 00 00 00 00 
    18.784000 1 22332203x Rx d 8 16 00 0a 27 e7 26 02 00 
    18.788000 1 22332b00x Rx d 8 00 00 2d 00 00 de 13 00 
    18.794000 1 22332303x Rx d 8 81 c1 00 00 8c 05 00 00 
    18.804000 1 22332403x Rx d 8 00 00 02 00 00 00 00 79 
    18.808000 1 22331500x Rx d 8 6e 26 d6 25 6e 26 33 00 
    18.814000 1 22332503x Rx d 8 02 03 00 00 00 00 1e 02 
    18.822000 1 22331600x Rx d 8 32 00 bd 04 00 00 00 01 
    18.828000 1 22331700x Rx d 8 00 3f 00 00 00 00 f7 07 
    18.834000 1 22332101x Rx d 8 00 00 42 00 ee 00 04 02 
    18.838000 1 22332200x Rx d 8 6f f6 34 00 d0 cc 00 00 
    18.846000 1 22332102x Rx d 8 00 00 42 00 ca 00 04 02 
    18.848000 1 22331900x Rx d 8 66 26 0a 00 02 00 01 00 
    18.849000 1 22015000x Rx d 8 00 00 e9 e2 1c 08 00 62 
    18.854000 1 22015001x Rx d 8 00 00 ef e2 1c 08 00 62 
    18.855000 1 22015003x Rx d 8 ed 33 22 e3 1c 08 00 62 
    18.857000 1 22015002x Rx d 8 00 00 02 e3 1c 08 00 62 
    18.859000 1 22332100x Rx d 8 00 00 42 00 b4 01 04 02 
    18.861000 1 22013350x Rx d 8 0f 00 14 33 8e 33 00 46 
    18.864000 1 22330101x Rx d 8 00 74 00 00 52 03 00 00 
    18.869000 1 22332200x Rx d 8 15 00 06 27 8a 26 82 00 
    18.874000 1 22332103x Rx d 8 00 00 42 00 20 02 04 02 
    18.879000 1 22332300x Rx d 8 5d c6 00 00 8c 05 00 00 
    18.884000 1 22330301x Rx d 8 00 00 ed e2 e0 fc 00 02 
    18.889000 1 22332400x Rx d 8 00 00 02 00 00 00 00 46 
    18.894000 1 22330401x Rx d 8 33 10 3b 10 38 39 09 20 
    18.899000 1 22332500x Rx d 8 02 03 00 00 00 00 1f 02 
    18.914000 1 22330601x Rx d 8 3e 0e 00 08 00 01 69 69 
    18.924000 1 22330701x Rx d 8 00 00 00 00 00 00 0c 27 
    18.934000 1 22330801x Rx d 8 00 00 00 00 fb 00 f3 00 
    18.934000 1 22332101x Rx d 8 00 00 42 00 ee 00 04 02 
    18.946000 1 22332102x Rx d 8 00 00 42 00 ca 00 04 02 
    18.950000 1 22015000x Rx d 8 00 00 ed e2 1c 08 00 72 
    18.954000 1 22332001x Rx d 8 00 00 00 00 00 00 00 00 
    18.955000 1 22015003x Rx d 8 ed 33 16 e3 1c 08 00 72 
    18.955000 1 22015001x Rx d 8 f8 33 eb e2 1c 08 00 72 
    18.957000 1 22015002x Rx d 8 00 00 fb e2 1c 08 00 72 
    18.959000 1 22332100x Rx d 8 00 00 42 00 b4 01 04 02 
    18.964000 1 22332b01x Rx d 8 00 00 03 00 00 07 01 00 
    18.971000 1 22013350x Rx d 8 0f 00 14 33 8e 33 00 47 
    18.974000 1 22332103x Rx d 8 00 00 42 00 20 02 04 02 
    18.984000 1 22331501x Rx d 8 58 26 66 25 71 26 33 00 
    18.994000 1 22331601x Rx d 8 21 00 d4 04 00 00 00 01 
    19.004000 1 22331701x Rx d 8 00 3f 00 00 01 00 f3 07 
    19.014000 1 22332201x Rx d 8 7f de 01 00 22 ea 00 00 
    19.024000 1 22331901x Rx d 8 52 26 08 00 12 00 01 00 
    19.034000 1 22332101x Rx d 8 00 00 42 00 ee 00 04 02 
    19.044000 1 22332201x Rx d 8 00 00 10 27 0c 27 82 00 
    19.046000 1 22330102x Rx d 8 00 74 00 00 7d 03 00 00 
    19.046000 1 22330302x Rx d 8 00 00 00 e3 e0 fc 00 02 
    19.047000 1 22330402x Rx d 8 33 10 3f 10 39 3a 0a 43 
    19.047000 1 22330602x Rx d 8 3e 0d 00 08 00 01 69 69 
    19.047000 1 22330702x Rx d 8 00 00 00 00 00 00 1f 26 
    19.048000 1 22330802x Rx d 8 00 00 00 00 fd 00 1c 00 
    19.048000 1 22332002x Rx d 8 00 00 00 00 00 00 00 00 
    19.048000 1 22332b02x Rx d 8 00 00 7e 05 00 7d 27 00 
    19.048000 1 22331502x Rx d 8 8c 26 f2 25 8d 26 33 00 
    19.049000 1 22331602x Rx d 8 04 00 b1 04 00 00 00 01 
    19.049000 1 22331702x Rx d 8 00 3f 00 00 00 00 f7 07 
    19.049000 1 22332202x Rx d 8 f7 ec 2f 00 00 fa 00 00 
    19.050000 1 22015000x Rx d 8 00 00 ef e2 1c 08 00 82 
    19.050000 1 22331902x Rx d 8 7d 26 0c 00 10 00 01 00 
    19.050000 1 22332102x Rx d 8 00 00 42 00 ca 00 04 02 
    19.050000 1 22332202x Rx d 8 20 00 99 26 96 26 00 04 
    19.051000 1 22332302x Rx d 8 43 c5 00 00 8c 05 00 00 
    19.051000 1 22332402x Rx d 8 00 00 01 00 00 00 00 15 
    19.051000 1 22332502x Rx d 8 02 03 00 00 00 00 1f 02 
    19.054000 1 22332301x Rx d 8 e3 c4 00 00 f8 04 00 00 
    19.055000 1 22015003x Rx d 8 ed 33 16 e3 1c 08 00 82 
    19.055000 1 22015001x Rx d 8 f8 33 e7 e2 1c 08 00 82 
    19.058000 1 22015002x Rx d 8 00 00 00 e3 1c 08 00 82 
    19.059000 1 22332100x Rx d 8 00 00 42 00 b4 01 04 02 
    19.065000 1 22332401x Rx d 8 00 00 02 00 00 00 1f d2 
    19.074000 1 22332103x Rx d 8 00 00 42 00 20 02 04 02 
    19.075000 1 22332501x Rx d 8 02 03 00 00 00 00 1e 02 
    19.081000 1 22013350x Rx d 8 0f 00 14 33 8e 33 00 48 
    19.124000 1 22330303x Rx d 8 ed 33 12 e3 e0 fc 00 02 
    19.135000 1 22332101x Rx d 8 00 00 42 00 ee 00 04 02 
    19.147000 1 22332102x Rx d 8 00 00 42 00 ca 00 04 02 
    19.150000 1 22015000x Rx d 8 00 00 f1 e2 1c 08 00 92 
    19.154000 1 22330603x Rx d 8 3e 0d 00 08 00 01 69 69 
    19.155000 1 22015003x Rx d 8 ed 33 12 e3 1c 08 00 92 
    19.155000 1 22015001x Rx d 8 f8 33 e9 e2 1c 08 00 92 
    19.158000 1 22015002x Rx d 8 00 00 00 e3 1c 08 00 92 
    19.159000 1 22332100x Rx d 8 00 00 42 00 b4 01 04 02 
    19.174000 1 22332103x Rx d 8 00 00 42 00 20 02 04 02 
    19.191000 1 22013350x Rx d 8 0f 00 14 33 8e 33 00 49 
    19.194000 1 22332003x Rx d 8 00 00 00 00 00 00 00 00 
    19.209000 1 22330300x Rx d 8 00 00 f1 e2 e0 fc 00 02 
    19.235000 1 22332101x Rx d 8 00 00 42 00 ee 00 04 02 
    19.239000 1 22330600x Rx d 8 3e 0d 00 08 00 01 69 69 
    19.247000 1 22332102x Rx d 8 00 00 42 00 ca 00 04 02 
    19.250000 1 22015000x Rx d 8 00 00 ef e2 1c 08 00 a2 
    19.255000 1 22015003x Rx d 8 ed 33 14 e3 1c 08 00 a2 
    19.255000 1 22015001x Rx d 8 00 00 ed e2 1c 08 00 a2 
    19.258000 1 22015002x Rx d 8 00 00 02 e3 1c 08 00 a2 
    19.259000 1 22332100x Rx d 8 00 00 42 00 b4 01 04 02 
    19.274000 1 22332103x Rx d 8 00 00 42 00 20 02 04 02 
    19.279000 1 22332000x Rx d 8 00 00 00 00 00 00 00 00 
    19.301000 1 22013350x Rx d 8 0f 00 14 33 8e 33 00 4a 
    19.335000 1 22332101x Rx d 8 00 00 42 00 ee 00 04 02 
    19.347000 1 22332102x Rx d 8 00 00 42 00 ca 00 04 02 
    19.350000 1 22015000x Rx d 8 00 00 f3 e2 1c 08 00 b2 
    19.355000 1 22015003x Rx d 8 ec 33 16 e3 1c 08 00 b2 
    19.355000 1 22015001x Rx d 8 f8 33 e9 e2 1c 08 00 b2 
    19.358000 1 22015002x Rx d 8 00 00 fd e2 1c 08 00 b2 
    19.359000 1 22332100x Rx d 8 00 00 42 00 b4 01 04 02 
    19.374000 1 22332103x Rx d 8 00 00 42 00 20 02 04 02 
    19.385000 1 22330301x Rx d 8 f8 33 e9 e2 e0 fc 00 02 
    19.442000 1 22013350x Rx d 8 0f 00 14 33 8e 33 00 4b 
    19.415000 1 22330601x Rx d 8 3e 0e 00 08 00 01 69 69 
    19.435000 1 22332101x Rx d 8 00 00 42 00 ee 00 04 02 
    19.447000 1 22332102x Rx d 8 00 00 42 00 ca 00 04 02 
    19.451000 1 22015000x Rx d 8 f8 33 ed e2 1c 08 00 c2 
    19.455000 1 22015003x Rx d 8 ed 33 14 e3 1c 08 00 c2 
    19.455000 1 22332001x Rx d 8 00 00 00 00 00 00 00 00 
    19.455000 1 22015001x Rx d 8 00 00 ed e2 1c 08 00 c2 
    19.458000 1 22015002x Rx d 8 00 00 f7 e2 1c 08 00 c2 
    19.460000 1 22332100x Rx d 8 00 00 42 00 b4 01 04 02 
    19.474000 1 22332103x Rx d 8 00 00 42 00 20 02 04 02 
    19.521000 1 22013350x Rx d 8 0f 00 14 33 8e 33 00 4c 
    19.535000 1 22332101x Rx d 8 00 00 42 00 ee 00 04 02 
    19.547000 1 22330302x Rx d 8 00 00 fb e2 e0 fc 00 02 
    19.547000 1 22330602x Rx d 8 3e 0d 00 08 00 01 69 69 
    19.548000 1 22332002x Rx d 8 00 00 00 00 00 00 00 00 
    19.548000 1 22332102x Rx d 8 00 00 42 00 ca 00 04 02 
    19.551000 1 22015000x Rx d 8 00 00 eb e2 1c 08 00 d2 
    19.555000 1 22015003x Rx d 8 ed 33 10 e3 1c 08 00 d2 
    19.555000 1 22015001x Rx d 8 f8 33 ed e2 1c 08 00 d2 
    19.558000 1 22015002x Rx d 8 00 00 fb e2 1c 08 00 d2 
    19.560000 1 22332100x Rx d 8 00 00 42 00 b4 01 04 02 
    19.574000 1 22332103x Rx d 8 00 00 42 00 20 02 04 02 
    19.604000 1 22330103x Rx d 8 00 74 00 00 6b 03 00 00 
    19.624000 1 22330303x Rx d 8 ed 33 10 e3 e0 fc 00 02 
    19.634000 1 22330403x Rx d 8 33 10 3f 10 39 39 0a 38 
    19.635000 1 22332101x Rx d 8 00 00 42 00 ee 00 04 02 
    19.639000 1 22013350x Rx d 8 0f 00 14 33 8e 33 00 4d 
    19.650000 1 22015000x Rx d 8 00 00 ed e2 1c 08 00 e2 
    19.654000 1 22330603x Rx d 8 3e 0d 00 08 00 01 69 69 
    19.654000 1 22332102x Rx d 8 00 00 42 00 ca 00 04 02 
    19.655000 1 22015003x Rx d 8 ed 33 12 e3 1c 08 00 e2 
    19.655000 1 22015001x Rx d 8 00 00 ed e2 1c 08 00 e2 
    19.660000 1 22332100x Rx d 8 00 00 42 00 b4 01 04 02 
    19.664000 1 22330703x Rx d 8 00 00 00 00 00 00 e1 26 
    19.665000 1 22015002x Rx d 8 00 00 06 e3 1c 08 00 e2 
    19.674000 1 22330803x Rx d 8 00 00 00 00 f4 00 37 01 
    19.674000 1 22332103x Rx d 8 00 00 42 00 20 02 04 02 
    19.690000 1 22330100x Rx d 8 00 74 00 00 66 03 00 00 
    19.694000 1 22332003x Rx d 8 00 00 00 00 00 00 00 00 
    19.704000 1 22332b03x Rx d 8 00 00 0e 00 00 4c 01 00 
    19.710000 1 22330300x Rx d 8 f8 33 ef e2 e0 fc 00 02 
    19.720000 1 22330400x Rx d 8 33 10 3d 10 39 39 09 20 
    19.724000 1 22331503x Rx d 8 72 26 ba 25 7b 26 33 00 
    19.734000 1 22331603x Rx d 8 28 00 c1 04 08 00 00 01 
    19.735000 1 22332101x Rx d 8 00 00 42 00 ee 00 04 02 
    19.740000 1 22330600x Rx d 8 3e 0d 00 08 00 01 69 69 
    19.742000 1 22013350x Rx d 8 0f 00 14 33 8e 33 00 4e 
    19.744000 1 22331703x Rx d 8 00 3f 00 00 00 00 f5 07 
    19.750000 1 22330700x Rx d 8 00 00 00 00 00 00 80 26 
    19.751000 1 22015000x Rx d 8 f8 33 ef e2 1c 08 00 f2 
    19.751000 1 22025000x Rx d 8 62 33 00 f8 00 00 00 63 
    19.751000 1 22035000x Rx d 8 33 10 3d 10 d8 00 dd 00 
    19.754000 1 22332203x Rx d 8 05 74 10 00 53 2f 01 00 
    19.754000 1 22332102x Rx d 8 00 00 42 00 ca 00 04 02 
    19.755000 1 22015003x Rx d 8 ed 33 10 e3 1c 08 00 f2 
    19.755000 1 22025003x Rx d 8 62 33 00 f0 00 00 00 64 
    19.755000 1 22035003x Rx d 8 35 10 3f 10 d8 00 df 00 
    19.761000 1 22330800x Rx d 8 00 00 00 00 fb 00 14 00 
    19.761000 1 22332100x Rx d 8 00 00 42 00 b4 01 04 02 
    19.765000 1 22015002x Rx d 8 00 00 04 e3 1c 08 00 f2 
    19.765000 1 22025002x Rx d 8 63 33 00 f8 00 00 00 62 
    19.765000 1 22035002x Rx d 8 33 10 41 10 dc 00 e6 00 
    19.766000 1 22331903x Rx d 8 6b 26 0a 00 12 00 01 00 
    19.768000 1 22015001x Rx d 8 f8 33 eb e2 1c 08 00 f2 
    19.769000 1 22025001x Rx d 8 62 33 00 f8 00 00 00 64 
    19.769000 1 22035001x Rx d 8 33 10 3b 10 d6 00 dc 00 
    19.775000 1 22332103x Rx d 8 00 00 42 00 20 02 04 02 
    19.781000 1 22332000x Rx d 8 00 00 00 00 00 00 00 00 
    19.785000 1 22332203x Rx d 8 16 00 0a 27 e7 26 02 00 
    19.791000 1 22332b00x Rx d 8 00 00 2d 00 00 de 13 00 
    19.795000 1 22332303x Rx d 8 82 c1 00 00 8c 05 00 00 
    19.805000 1 22332403x Rx d 8 00 00 02 00 00 00 00 c9 
    19.842000 1 22331500x Rx d 8 6e 26 66 25 6e 26 33 00 
    19.815000 1 22332503x Rx d 8 02 03 00 00 00 00 1e 02 
    19.821000 1 22331600x Rx d 8 3c 00 bc 04 00 00 00 01 
    19.831000 1 22331700x Rx d 8 00 3f 00 00 00 00 f7 07 
    19.841000 1 22332200x Rx d 8 6f f6 34 00 bb d0 00 00 
    19.848000 1 22332101x Rx d 8 00 00 42 00 ee 00 04 02 
    19.851000 1 22331900x Rx d 8 66 26 0a 00 02 00 01 00 
    19.851000 1 22013350x Rx d 8 0f 00 14 33 8e 33 00 4f 
    19.852000 1 22015000x Rx d 8 00 00 f5 e2 1c 08 00 02 
    19.855000 1 22332102x Rx d 8 00 00 42 00 ca 00 04 02 
    19.855000 1 22015003x Rx d 8 ed 33 0a e3 1c 08 00 02 
    19.862000 1 22332100x Rx d 8 00 00 42 00 b4 01 04 02 
    19.866000 1 22015002x Rx d 8 00 00 00 e3 1c 08 00 02 
    19.868000 1 22015001x Rx d 8 f8 33 fb e2 1c 08 00 02 
    19.872000 1 22332200x Rx d 8 15 00 06 27 8a 26 82 00 
    19.875000 1 22332103x Rx d 8 00 00 42 00 20 02 04 02 
    19.878000 1 22330101x Rx d 8 00 74 00 00 52 03 00 00 
    19.882000 1 22332300x Rx d 8 5e c6 00 00 8c 05 00 00 
    19.892000 1 22332400x Rx d 8 00 00 02 00 00 00 00 81 
    19.898000 1 22330301x Rx d 8 f8 33 fb e2 e0 fc 00 02 
    19.902000 1 22332500x Rx d 8 02 03 00 00 00 00 1e 02 
    19.908000 1 22330401x Rx d 8 33 10 3b 10 38 39 0a 20 
    19.922000 1 22330501x Rx d 8 35 32 32 31 30 30 35 30 
    19.928000 1 22330601x Rx d 8 3e 0e 00 08 00 01 69 69 
    19.938000 1 22330701x Rx d 8 00 00 00 00 00 00 0c 27 
    19.948000 1 22330801x Rx d 8 00 00 00 00 fb 00 f3 00 
    19.948000 1 22332101x Rx d 8 00 00 42 00 ee 00 04 02 
    19.952000 1 22015000x Rx d 8 00 00 f3 e2 1c 08 00 12 
    19.955000 1 22332102x Rx d 8 00 00 42 00 ca 00 04 02 
    19.955000 1 22015003x Rx d 8 ec 33 0e e3 1c 08 00 12 
    19.958000 1 22330901x Rx d 8 0e 00 20 00 00 24 00 00 
    19.962000 1 22013350x Rx d 8 0f 00 14 33 8e 33 00 50 
    19.962000 1 22332100x Rx d 8 00 00 42 00 b4 01 04 02 
    19.966000 1 22015002x Rx d 8 00 00 02 e3 1c 08 00 12 
    19.968000 1 22332001x Rx d 8 00 00 00 00 00 00 00 00 
    19.968000 1 22015001x Rx d 8 f8 33 fd e2 1c 08 00 12 
    19.975000 1 22332103x Rx d 8 00 00 42 00 20 02 04 02 
    19.978000 1 22332b01x Rx d 8 00 00 03 00 00 07 01 00 
    19.998000 1 22331501x Rx d 8 57 26 66 25 71 26 33 00 
    20.008000 1 22331601x Rx d 8 2b 00 d4 04 00 00 00 01 
    20.022000 1 22331701x Rx d 8 00 3f 00 00 01 00 f3 07 
    20.028000 1 22332201x Rx d 8 80 de 01 00 22 ee 00 00 
    20.038000 1 22331901x Rx d 8 52 26 08 00 12 00 01 00 
    20.048000 1 22332101x Rx d 8 00 00 42 00 ee 00 04 02 
    20.054000 1 22015000x Rx d 8 00 00 ef e2 1c 08 00 22 
    20.055000 1 22330102x Rx d 8 00 74 00 00 7d 03 00 00 
    20.055000 1 22330302x Rx d 8 00 00 fd e2 e0 fc 00 02 
    20.056000 1 22015003x Rx d 8 ed 33 16 e3 1c 08 00 22 
    20.056000 1 22330402x Rx d 8 33 10 3f 10 39 3a 0a 43 
    20.056000 1 22330602x Rx d 8 3e 0d 00 08 00 01 69 69 
    20.057000 1 22330702x Rx d 8 00 00 00 00 00 00 1f 26 
    20.057000 1 22330802x Rx d 8 00 00 00 00 fd 00 1c 00 
    20.057000 1 22332002x Rx d 8 00 00 00 00 00 00 00 00 
    20.057000 1 22332b02x Rx d 8 00 00 7e 05 00 7d 27 00 
    20.058000 1 22331502x Rx d 8 8c 26 f2 25 8d 26 33 00 
    20.058000 1 22331602x Rx d 8 0e 00 b1 04 00 00 00 01 
    20.058000 1 22331702x Rx d 8 00 3f 00 00 00 00 f7 07 
    20.059000 1 22332202x Rx d 8 f8 ec 2f 00 f1 fd 00 00 
    20.059000 1 22331902x Rx d 8 7d 26 0c 00 10 00 01 00 
    20.059000 1 22332102x Rx d 8 00 00 42 00 ca 00 04 02 
    20.059000 1 22332201x Rx d 8 00 00 10 27 0c 27 82 00 
    20.060000 1 22332202x Rx d 8 20 00 99 26 96 26 00 04 
    20.060000 1 22332302x Rx d 8 44 c5 00 00 8c 05 00 00 
